Command: ./simv -l simv.log
Chronologic VCS simulator copyright 1991-2014
Contains Synopsys proprietary information.
Compiler version I-2014.03_Full64; Runtime version I-2014.03_Full64;  Sep 11 09:59 2019
start vpd!!!
VCD+ Writer I-2014.03_Full64 Copyright (c) 1991-2014 by Synopsys Inc.
ddr_system.sdram0 : at time  101520.0 ns AREF : Auto Refresh
ddr_system.sdram0 : at time  101720.0 ns AREF : Auto Refresh
ddr_system.sdram0 : at time  101920.0 ns LMR  : Load Mode Register
ddr_system.sdram0 :                             CAS Latency      = 2
ddr_system.sdram0 :                             Burst Length     = 2
ddr_system.sdram0 :                             Burst Type       = Sequential
ddr_system.sdram0 :                             Write Burst Mode = Programmed Burst Length
ddr_system.sdram0 : at time  102180.0 ns AREF : Auto Refresh
ddr_system.sdram0 : at time  102280.0 ns ACT  : Bank = 0 Row = 0000
time( 102310.0 ns) axiWrCnt(         0) awaddr(0000000000) burstLen(  2) wdata:01234567
ddr_system.sdram0 : at time  102320.0 ns WRITE: Bank = 0 Row = 0000, Col = 000, Data = zzzz
ddr_system.sdram0 : at time  102340.0 ns WRITE: Bank = 0 Row = 0000, Col = 001, Data = 0123
time( 102350.0 ns) axiWrCnt(         0) awaddr(0000000000) burstLen(  1) wdata:0123456f
ddr_system.sdram0 : at time  102360.0 ns WRITE: Bank = 0 Row = 0000, Col = 002, Data = zzzz
ddr_system.sdram0 : at time  102380.0 ns WRITE: Bank = 0 Row = 0000, Col = 003, Data = 0123
time( 102450.0 ns) axiWrCnt(         1) awaddr(0000000020) burstLen(  2) wdata:01234577
ddr_system.sdram0 : at time  102460.0 ns WRITE: Bank = 0 Row = 0000, Col = 010, Data = zzzz
ddr_system.sdram0 : at time  102480.0 ns WRITE: Bank = 0 Row = 0000, Col = 011, Data = 0123
time( 102490.0 ns) axiWrCnt(         1) awaddr(0000000020) burstLen(  1) wdata:0123457f
ddr_system.sdram0 : at time  102500.0 ns WRITE: Bank = 0 Row = 0000, Col = 012, Data = zzzz
ddr_system.sdram0 : at time  102520.0 ns WRITE: Bank = 0 Row = 0000, Col = 013, Data = 0123
time( 102590.0 ns) axiWrCnt(         2) awaddr(0000000040) burstLen(  2) wdata:01234587
ddr_system.sdram0 : at time  102600.0 ns WRITE: Bank = 0 Row = 0000, Col = 020, Data = zzzz
ddr_system.sdram0 : at time  102620.0 ns WRITE: Bank = 0 Row = 0000, Col = 021, Data = 0123
time( 102630.0 ns) axiWrCnt(         2) awaddr(0000000040) burstLen(  1) wdata:0123458f
ddr_system.sdram0 : at time  102640.0 ns WRITE: Bank = 0 Row = 0000, Col = 022, Data = zzzz
ddr_system.sdram0 : at time  102660.0 ns WRITE: Bank = 0 Row = 0000, Col = 023, Data = 0123
time( 102730.0 ns) axiWrCnt(         3) awaddr(0000000060) burstLen(  2) wdata:01234597
ddr_system.sdram0 : at time  102740.0 ns WRITE: Bank = 0 Row = 0000, Col = 030, Data = zzzz
ddr_system.sdram0 : at time  102760.0 ns WRITE: Bank = 0 Row = 0000, Col = 031, Data = 0123
time( 102770.0 ns) axiWrCnt(         3) awaddr(0000000060) burstLen(  1) wdata:0123459f
ddr_system.sdram0 : at time  102780.0 ns WRITE: Bank = 0 Row = 0000, Col = 032, Data = zzzz
ddr_system.sdram0 : at time  102800.0 ns WRITE: Bank = 0 Row = 0000, Col = 033, Data = 0123
time( 102870.0 ns) axiWrCnt(         4) awaddr(0000000080) burstLen(  2) wdata:012345a7
ddr_system.sdram0 : at time  102880.0 ns WRITE: Bank = 0 Row = 0000, Col = 040, Data = zzzz
ddr_system.sdram0 : at time  102900.0 ns WRITE: Bank = 0 Row = 0000, Col = 041, Data = 0123
time( 102910.0 ns) axiWrCnt(         4) awaddr(0000000080) burstLen(  1) wdata:012345af
ddr_system.sdram0 : at time  102920.0 ns WRITE: Bank = 0 Row = 0000, Col = 042, Data = zzzz
ddr_system.sdram0 : at time  102940.0 ns WRITE: Bank = 0 Row = 0000, Col = 043, Data = 0123
time( 103010.0 ns) axiWrCnt(         5) awaddr(00000000a0) burstLen(  2) wdata:012345b7
ddr_system.sdram0 : at time  103020.0 ns WRITE: Bank = 0 Row = 0000, Col = 050, Data = zzzz
ddr_system.sdram0 : at time  103040.0 ns WRITE: Bank = 0 Row = 0000, Col = 051, Data = 0123
time( 103050.0 ns) axiWrCnt(         5) awaddr(00000000a0) burstLen(  1) wdata:012345bf
ddr_system.sdram0 : at time  103060.0 ns WRITE: Bank = 0 Row = 0000, Col = 052, Data = zzzz
ddr_system.sdram0 : at time  103080.0 ns WRITE: Bank = 0 Row = 0000, Col = 053, Data = 0123
time( 103150.0 ns) axiWrCnt(         6) awaddr(00000000c0) burstLen(  2) wdata:012345c7
ddr_system.sdram0 : at time  103160.0 ns WRITE: Bank = 0 Row = 0000, Col = 060, Data = zzzz
ddr_system.sdram0 : at time  103180.0 ns WRITE: Bank = 0 Row = 0000, Col = 061, Data = 0123
time( 103190.0 ns) axiWrCnt(         6) awaddr(00000000c0) burstLen(  1) wdata:012345cf
ddr_system.sdram0 : at time  103200.0 ns WRITE: Bank = 0 Row = 0000, Col = 062, Data = zzzz
ddr_system.sdram0 : at time  103220.0 ns WRITE: Bank = 0 Row = 0000, Col = 063, Data = 0123
time( 103290.0 ns) axiWrCnt(         7) awaddr(00000000e0) burstLen(  2) wdata:012345d7
ddr_system.sdram0 : at time  103300.0 ns WRITE: Bank = 0 Row = 0000, Col = 070, Data = zzzz
ddr_system.sdram0 : at time  103320.0 ns WRITE: Bank = 0 Row = 0000, Col = 071, Data = 0123
time( 103330.0 ns) axiWrCnt(         7) awaddr(00000000e0) burstLen(  1) wdata:012345df
ddr_system.sdram0 : at time  103340.0 ns WRITE: Bank = 0 Row = 0000, Col = 072, Data = zzzz
ddr_system.sdram0 : at time  103360.0 ns WRITE: Bank = 0 Row = 0000, Col = 073, Data = 0123
time( 103430.0 ns) axiWrCnt(         8) awaddr(0000000100) burstLen(  2) wdata:012345e7
ddr_system.sdram0 : at time  103440.0 ns WRITE: Bank = 0 Row = 0000, Col = 080, Data = zzzz
ddr_system.sdram0 : at time  103460.0 ns WRITE: Bank = 0 Row = 0000, Col = 081, Data = 0123
time( 103470.0 ns) axiWrCnt(         8) awaddr(0000000100) burstLen(  1) wdata:012345ef
ddr_system.sdram0 : at time  103480.0 ns WRITE: Bank = 0 Row = 0000, Col = 082, Data = zzzz
ddr_system.sdram0 : at time  103500.0 ns WRITE: Bank = 0 Row = 0000, Col = 083, Data = 0123
time( 103570.0 ns) axiWrCnt(         9) awaddr(0000000120) burstLen(  2) wdata:012345f7
ddr_system.sdram0 : at time  103580.0 ns WRITE: Bank = 0 Row = 0000, Col = 090, Data = zzzz
ddr_system.sdram0 : at time  103600.0 ns WRITE: Bank = 0 Row = 0000, Col = 091, Data = 0123
time( 103610.0 ns) axiWrCnt(         9) awaddr(0000000120) burstLen(  1) wdata:012345ff
ddr_system.sdram0 : at time  103620.0 ns WRITE: Bank = 0 Row = 0000, Col = 092, Data = zzzz
ddr_system.sdram0 : at time  103640.0 ns WRITE: Bank = 0 Row = 0000, Col = 093, Data = 0123
time( 103710.0 ns) axiWrCnt(        10) awaddr(0000000140) burstLen(  2) wdata:01234607
ddr_system.sdram0 : at time  103720.0 ns WRITE: Bank = 0 Row = 0000, Col = 0a0, Data = zzzz
ddr_system.sdram0 : at time  103740.0 ns WRITE: Bank = 0 Row = 0000, Col = 0a1, Data = 0123
time( 103750.0 ns) axiWrCnt(        10) awaddr(0000000140) burstLen(  1) wdata:0123460f
ddr_system.sdram0 : at time  103760.0 ns WRITE: Bank = 0 Row = 0000, Col = 0a2, Data = zzzz
ddr_system.sdram0 : at time  103780.0 ns WRITE: Bank = 0 Row = 0000, Col = 0a3, Data = 0123
time( 103850.0 ns) axiWrCnt(        11) awaddr(0000000160) burstLen(  2) wdata:01234617
ddr_system.sdram0 : at time  103860.0 ns WRITE: Bank = 0 Row = 0000, Col = 0b0, Data = zzzz
ddr_system.sdram0 : at time  103880.0 ns WRITE: Bank = 0 Row = 0000, Col = 0b1, Data = 0123
time( 103890.0 ns) axiWrCnt(        11) awaddr(0000000160) burstLen(  1) wdata:0123461f
ddr_system.sdram0 : at time  103900.0 ns WRITE: Bank = 0 Row = 0000, Col = 0b2, Data = zzzz
ddr_system.sdram0 : at time  103920.0 ns WRITE: Bank = 0 Row = 0000, Col = 0b3, Data = 0123
time( 103990.0 ns) axiWrCnt(        12) awaddr(0000000180) burstLen(  2) wdata:01234627
ddr_system.sdram0 : at time  104000.0 ns WRITE: Bank = 0 Row = 0000, Col = 0c0, Data = zzzz
ddr_system.sdram0 : at time  104020.0 ns WRITE: Bank = 0 Row = 0000, Col = 0c1, Data = 0123
time( 104030.0 ns) axiWrCnt(        12) awaddr(0000000180) burstLen(  1) wdata:0123462f
ddr_system.sdram0 : at time  104040.0 ns WRITE: Bank = 0 Row = 0000, Col = 0c2, Data = zzzz
ddr_system.sdram0 : at time  104060.0 ns WRITE: Bank = 0 Row = 0000, Col = 0c3, Data = 0123
time( 104130.0 ns) axiWrCnt(        13) awaddr(00000001a0) burstLen(  2) wdata:01234637
ddr_system.sdram0 : at time  104140.0 ns WRITE: Bank = 0 Row = 0000, Col = 0d0, Data = zzzz
ddr_system.sdram0 : at time  104160.0 ns WRITE: Bank = 0 Row = 0000, Col = 0d1, Data = 0123
time( 104170.0 ns) axiWrCnt(        13) awaddr(00000001a0) burstLen(  1) wdata:0123463f
ddr_system.sdram0 : at time  104180.0 ns WRITE: Bank = 0 Row = 0000, Col = 0d2, Data = zzzz
ddr_system.sdram0 : at time  104200.0 ns WRITE: Bank = 0 Row = 0000, Col = 0d3, Data = 0123
time( 104270.0 ns) axiWrCnt(        14) awaddr(00000001c0) burstLen(  2) wdata:01234647
ddr_system.sdram0 : at time  104280.0 ns WRITE: Bank = 0 Row = 0000, Col = 0e0, Data = zzzz
ddr_system.sdram0 : at time  104300.0 ns WRITE: Bank = 0 Row = 0000, Col = 0e1, Data = 0123
time( 104310.0 ns) axiWrCnt(        14) awaddr(00000001c0) burstLen(  1) wdata:0123464f
ddr_system.sdram0 : at time  104320.0 ns WRITE: Bank = 0 Row = 0000, Col = 0e2, Data = zzzz
ddr_system.sdram0 : at time  104340.0 ns WRITE: Bank = 0 Row = 0000, Col = 0e3, Data = 0123
time( 104410.0 ns) axiWrCnt(        15) awaddr(00000001e0) burstLen(  2) wdata:01234657
ddr_system.sdram0 : at time  104420.0 ns WRITE: Bank = 0 Row = 0000, Col = 0f0, Data = zzzz
ddr_system.sdram0 : at time  104440.0 ns WRITE: Bank = 0 Row = 0000, Col = 0f1, Data = 0123
time( 104450.0 ns) axiWrCnt(        15) awaddr(00000001e0) burstLen(  1) wdata:0123465f
ddr_system.sdram0 : at time  104460.0 ns WRITE: Bank = 0 Row = 0000, Col = 0f2, Data = zzzz
ddr_system.sdram0 : at time  104480.0 ns WRITE: Bank = 0 Row = 0000, Col = 0f3, Data = 0123
time( 104550.0 ns) axiWrCnt(        16) awaddr(0000000200) burstLen(  2) wdata:01234667
ddr_system.sdram0 : at time  104560.0 ns WRITE: Bank = 0 Row = 0000, Col = 100, Data = zzzz
ddr_system.sdram0 : at time  104580.0 ns WRITE: Bank = 0 Row = 0000, Col = 101, Data = 0123
time( 104590.0 ns) axiWrCnt(        16) awaddr(0000000200) burstLen(  1) wdata:0123466f
ddr_system.sdram0 : at time  104600.0 ns WRITE: Bank = 0 Row = 0000, Col = 102, Data = zzzz
ddr_system.sdram0 : at time  104620.0 ns WRITE: Bank = 0 Row = 0000, Col = 103, Data = 0123
time( 104690.0 ns) axiWrCnt(        17) awaddr(0000000220) burstLen(  2) wdata:01234677
ddr_system.sdram0 : at time  104700.0 ns WRITE: Bank = 0 Row = 0000, Col = 110, Data = zzzz
ddr_system.sdram0 : at time  104720.0 ns WRITE: Bank = 0 Row = 0000, Col = 111, Data = 0123
time( 104730.0 ns) axiWrCnt(        17) awaddr(0000000220) burstLen(  1) wdata:0123467f
ddr_system.sdram0 : at time  104740.0 ns WRITE: Bank = 0 Row = 0000, Col = 112, Data = zzzz
ddr_system.sdram0 : at time  104760.0 ns WRITE: Bank = 0 Row = 0000, Col = 113, Data = 0123
time( 104830.0 ns) axiWrCnt(        18) awaddr(0000000240) burstLen(  2) wdata:01234687
ddr_system.sdram0 : at time  104840.0 ns WRITE: Bank = 0 Row = 0000, Col = 120, Data = zzzz
ddr_system.sdram0 : at time  104860.0 ns WRITE: Bank = 0 Row = 0000, Col = 121, Data = 0123
time( 104870.0 ns) axiWrCnt(        18) awaddr(0000000240) burstLen(  1) wdata:0123468f
ddr_system.sdram0 : at time  104880.0 ns WRITE: Bank = 0 Row = 0000, Col = 122, Data = zzzz
ddr_system.sdram0 : at time  104900.0 ns WRITE: Bank = 0 Row = 0000, Col = 123, Data = 0123
time( 104970.0 ns) axiWrCnt(        19) awaddr(0000000260) burstLen(  2) wdata:01234697
ddr_system.sdram0 : at time  104980.0 ns WRITE: Bank = 0 Row = 0000, Col = 130, Data = zzzz
ddr_system.sdram0 : at time  105000.0 ns WRITE: Bank = 0 Row = 0000, Col = 131, Data = 0123
time( 105010.0 ns) axiWrCnt(        19) awaddr(0000000260) burstLen(  1) wdata:0123469f
ddr_system.sdram0 : at time  105020.0 ns WRITE: Bank = 0 Row = 0000, Col = 132, Data = zzzz
ddr_system.sdram0 : at time  105040.0 ns WRITE: Bank = 0 Row = 0000, Col = 133, Data = 0123
time( 105110.0 ns) axiWrCnt(        20) awaddr(0000000280) burstLen(  2) wdata:012346a7
ddr_system.sdram0 : at time  105120.0 ns WRITE: Bank = 0 Row = 0000, Col = 140, Data = zzzz
ddr_system.sdram0 : at time  105140.0 ns WRITE: Bank = 0 Row = 0000, Col = 141, Data = 0123
time( 105150.0 ns) axiWrCnt(        20) awaddr(0000000280) burstLen(  1) wdata:012346af
ddr_system.sdram0 : at time  105160.0 ns WRITE: Bank = 0 Row = 0000, Col = 142, Data = zzzz
ddr_system.sdram0 : at time  105180.0 ns WRITE: Bank = 0 Row = 0000, Col = 143, Data = 0123
time( 105250.0 ns) axiWrCnt(        21) awaddr(00000002a0) burstLen(  2) wdata:012346b7
ddr_system.sdram0 : at time  105260.0 ns WRITE: Bank = 0 Row = 0000, Col = 150, Data = zzzz
ddr_system.sdram0 : at time  105280.0 ns WRITE: Bank = 0 Row = 0000, Col = 151, Data = 0123
time( 105290.0 ns) axiWrCnt(        21) awaddr(00000002a0) burstLen(  1) wdata:012346bf
ddr_system.sdram0 : at time  105300.0 ns WRITE: Bank = 0 Row = 0000, Col = 152, Data = zzzz
ddr_system.sdram0 : at time  105320.0 ns WRITE: Bank = 0 Row = 0000, Col = 153, Data = 0123
time( 105390.0 ns) axiWrCnt(        22) awaddr(00000002c0) burstLen(  2) wdata:012346c7
ddr_system.sdram0 : at time  105400.0 ns WRITE: Bank = 0 Row = 0000, Col = 160, Data = zzzz
ddr_system.sdram0 : at time  105420.0 ns WRITE: Bank = 0 Row = 0000, Col = 161, Data = 0123
time( 105430.0 ns) axiWrCnt(        22) awaddr(00000002c0) burstLen(  1) wdata:012346cf
ddr_system.sdram0 : at time  105440.0 ns WRITE: Bank = 0 Row = 0000, Col = 162, Data = zzzz
ddr_system.sdram0 : at time  105460.0 ns WRITE: Bank = 0 Row = 0000, Col = 163, Data = 0123
time( 105530.0 ns) axiWrCnt(        23) awaddr(00000002e0) burstLen(  2) wdata:012346d7
ddr_system.sdram0 : at time  105540.0 ns WRITE: Bank = 0 Row = 0000, Col = 170, Data = zzzz
ddr_system.sdram0 : at time  105560.0 ns WRITE: Bank = 0 Row = 0000, Col = 171, Data = 0123
time( 105570.0 ns) axiWrCnt(        23) awaddr(00000002e0) burstLen(  1) wdata:012346df
ddr_system.sdram0 : at time  105580.0 ns WRITE: Bank = 0 Row = 0000, Col = 172, Data = zzzz
ddr_system.sdram0 : at time  105600.0 ns WRITE: Bank = 0 Row = 0000, Col = 173, Data = 0123
time( 105670.0 ns) axiWrCnt(        24) awaddr(0000000300) burstLen(  2) wdata:012346e7
ddr_system.sdram0 : at time  105680.0 ns WRITE: Bank = 0 Row = 0000, Col = 180, Data = zzzz
ddr_system.sdram0 : at time  105700.0 ns WRITE: Bank = 0 Row = 0000, Col = 181, Data = 0123
time( 105710.0 ns) axiWrCnt(        24) awaddr(0000000300) burstLen(  1) wdata:012346ef
ddr_system.sdram0 : at time  105720.0 ns WRITE: Bank = 0 Row = 0000, Col = 182, Data = zzzz
ddr_system.sdram0 : at time  105740.0 ns WRITE: Bank = 0 Row = 0000, Col = 183, Data = 0123
time( 105810.0 ns) axiWrCnt(        25) awaddr(0000000320) burstLen(  2) wdata:012346f7
ddr_system.sdram0 : at time  105820.0 ns WRITE: Bank = 0 Row = 0000, Col = 190, Data = zzzz
ddr_system.sdram0 : at time  105840.0 ns WRITE: Bank = 0 Row = 0000, Col = 191, Data = 0123
time( 105850.0 ns) axiWrCnt(        25) awaddr(0000000320) burstLen(  1) wdata:012346ff
ddr_system.sdram0 : at time  105860.0 ns WRITE: Bank = 0 Row = 0000, Col = 192, Data = zzzz
ddr_system.sdram0 : at time  105880.0 ns WRITE: Bank = 0 Row = 0000, Col = 193, Data = 0123
time( 105950.0 ns) axiWrCnt(        26) awaddr(0000000340) burstLen(  2) wdata:01234707
ddr_system.sdram0 : at time  105960.0 ns WRITE: Bank = 0 Row = 0000, Col = 1a0, Data = zzzz
ddr_system.sdram0 : at time  105980.0 ns WRITE: Bank = 0 Row = 0000, Col = 1a1, Data = 0123
time( 105990.0 ns) axiWrCnt(        26) awaddr(0000000340) burstLen(  1) wdata:0123470f
ddr_system.sdram0 : at time  106000.0 ns WRITE: Bank = 0 Row = 0000, Col = 1a2, Data = zzzz
ddr_system.sdram0 : at time  106020.0 ns WRITE: Bank = 0 Row = 0000, Col = 1a3, Data = 0123
time( 106090.0 ns) axiWrCnt(        27) awaddr(0000000360) burstLen(  2) wdata:01234717
ddr_system.sdram0 : at time  106100.0 ns WRITE: Bank = 0 Row = 0000, Col = 1b0, Data = zzzz
ddr_system.sdram0 : at time  106120.0 ns WRITE: Bank = 0 Row = 0000, Col = 1b1, Data = 0123
time( 106130.0 ns) axiWrCnt(        27) awaddr(0000000360) burstLen(  1) wdata:0123471f
ddr_system.sdram0 : at time  106140.0 ns WRITE: Bank = 0 Row = 0000, Col = 1b2, Data = zzzz
ddr_system.sdram0 : at time  106160.0 ns WRITE: Bank = 0 Row = 0000, Col = 1b3, Data = 0123
time( 106230.0 ns) axiWrCnt(        28) awaddr(0000000380) burstLen(  2) wdata:01234727
ddr_system.sdram0 : at time  106240.0 ns WRITE: Bank = 0 Row = 0000, Col = 1c0, Data = zzzz
ddr_system.sdram0 : at time  106260.0 ns WRITE: Bank = 0 Row = 0000, Col = 1c1, Data = 0123
time( 106270.0 ns) axiWrCnt(        28) awaddr(0000000380) burstLen(  1) wdata:0123472f
ddr_system.sdram0 : at time  106280.0 ns WRITE: Bank = 0 Row = 0000, Col = 1c2, Data = zzzz
ddr_system.sdram0 : at time  106300.0 ns WRITE: Bank = 0 Row = 0000, Col = 1c3, Data = 0123
time( 106370.0 ns) axiWrCnt(        29) awaddr(00000003a0) burstLen(  2) wdata:01234737
ddr_system.sdram0 : at time  106380.0 ns WRITE: Bank = 0 Row = 0000, Col = 1d0, Data = zzzz
ddr_system.sdram0 : at time  106400.0 ns WRITE: Bank = 0 Row = 0000, Col = 1d1, Data = 0123
time( 106410.0 ns) axiWrCnt(        29) awaddr(00000003a0) burstLen(  1) wdata:0123473f
ddr_system.sdram0 : at time  106420.0 ns WRITE: Bank = 0 Row = 0000, Col = 1d2, Data = zzzz
ddr_system.sdram0 : at time  106440.0 ns WRITE: Bank = 0 Row = 0000, Col = 1d3, Data = 0123
time( 106510.0 ns) axiWrCnt(        30) awaddr(00000003c0) burstLen(  2) wdata:01234747
ddr_system.sdram0 : at time  106520.0 ns WRITE: Bank = 0 Row = 0000, Col = 1e0, Data = zzzz
ddr_system.sdram0 : at time  106540.0 ns WRITE: Bank = 0 Row = 0000, Col = 1e1, Data = 0123
time( 106550.0 ns) axiWrCnt(        30) awaddr(00000003c0) burstLen(  1) wdata:0123474f
ddr_system.sdram0 : at time  106560.0 ns WRITE: Bank = 0 Row = 0000, Col = 1e2, Data = zzzz
ddr_system.sdram0 : at time  106580.0 ns WRITE: Bank = 0 Row = 0000, Col = 1e3, Data = 0123
time( 106650.0 ns) axiWrCnt(        31) awaddr(00000003e0) burstLen(  2) wdata:01234757
ddr_system.sdram0 : at time  106660.0 ns WRITE: Bank = 0 Row = 0000, Col = 1f0, Data = zzzz
ddr_system.sdram0 : at time  106680.0 ns WRITE: Bank = 0 Row = 0000, Col = 1f1, Data = 0123
time( 106690.0 ns) axiWrCnt(        31) awaddr(00000003e0) burstLen(  1) wdata:0123475f
ddr_system.sdram0 : at time  106700.0 ns WRITE: Bank = 0 Row = 0000, Col = 1f2, Data = zzzz
ddr_system.sdram0 : at time  106720.0 ns WRITE: Bank = 0 Row = 0000, Col = 1f3, Data = 0123
ddr_system.sdram0 : at time  106800.0 ns ACT  : Bank = 1 Row = 0000
time( 106830.0 ns) axiWrCnt(        32) awaddr(0000000400) burstLen(  2) wdata:01234767
ddr_system.sdram0 : at time  106840.0 ns WRITE: Bank = 1 Row = 0000, Col = 000, Data = zzzz
ddr_system.sdram0 : at time  106860.0 ns WRITE: Bank = 1 Row = 0000, Col = 001, Data = 0123
time( 106870.0 ns) axiWrCnt(        32) awaddr(0000000400) burstLen(  1) wdata:0123476f
ddr_system.sdram0 : at time  106880.0 ns WRITE: Bank = 1 Row = 0000, Col = 002, Data = zzzz
ddr_system.sdram0 : at time  106900.0 ns WRITE: Bank = 1 Row = 0000, Col = 003, Data = 0123
time( 106970.0 ns) axiWrCnt(        33) awaddr(0000000420) burstLen(  2) wdata:01234777
ddr_system.sdram0 : at time  106980.0 ns WRITE: Bank = 1 Row = 0000, Col = 010, Data = zzzz
ddr_system.sdram0 : at time  107000.0 ns WRITE: Bank = 1 Row = 0000, Col = 011, Data = 0123
time( 107010.0 ns) axiWrCnt(        33) awaddr(0000000420) burstLen(  1) wdata:0123477f
ddr_system.sdram0 : at time  107020.0 ns WRITE: Bank = 1 Row = 0000, Col = 012, Data = zzzz
ddr_system.sdram0 : at time  107040.0 ns WRITE: Bank = 1 Row = 0000, Col = 013, Data = 0123
time( 107110.0 ns) axiWrCnt(        34) awaddr(0000000440) burstLen(  2) wdata:01234787
ddr_system.sdram0 : at time  107120.0 ns WRITE: Bank = 1 Row = 0000, Col = 020, Data = zzzz
ddr_system.sdram0 : at time  107140.0 ns WRITE: Bank = 1 Row = 0000, Col = 021, Data = 0123
time( 107150.0 ns) axiWrCnt(        34) awaddr(0000000440) burstLen(  1) wdata:0123478f
ddr_system.sdram0 : at time  107160.0 ns WRITE: Bank = 1 Row = 0000, Col = 022, Data = zzzz
ddr_system.sdram0 : at time  107180.0 ns WRITE: Bank = 1 Row = 0000, Col = 023, Data = 0123
time( 107250.0 ns) axiWrCnt(        35) awaddr(0000000460) burstLen(  2) wdata:01234797
ddr_system.sdram0 : at time  107260.0 ns WRITE: Bank = 1 Row = 0000, Col = 030, Data = zzzz
ddr_system.sdram0 : at time  107280.0 ns WRITE: Bank = 1 Row = 0000, Col = 031, Data = 0123
time( 107290.0 ns) axiWrCnt(        35) awaddr(0000000460) burstLen(  1) wdata:0123479f
ddr_system.sdram0 : at time  107300.0 ns WRITE: Bank = 1 Row = 0000, Col = 032, Data = zzzz
ddr_system.sdram0 : at time  107320.0 ns WRITE: Bank = 1 Row = 0000, Col = 033, Data = 0123
time( 107390.0 ns) axiWrCnt(        36) awaddr(0000000480) burstLen(  2) wdata:012347a7
ddr_system.sdram0 : at time  107400.0 ns WRITE: Bank = 1 Row = 0000, Col = 040, Data = zzzz
ddr_system.sdram0 : at time  107420.0 ns WRITE: Bank = 1 Row = 0000, Col = 041, Data = 0123
time( 107430.0 ns) axiWrCnt(        36) awaddr(0000000480) burstLen(  1) wdata:012347af
ddr_system.sdram0 : at time  107440.0 ns WRITE: Bank = 1 Row = 0000, Col = 042, Data = zzzz
ddr_system.sdram0 : at time  107460.0 ns WRITE: Bank = 1 Row = 0000, Col = 043, Data = 0123
time( 107530.0 ns) axiWrCnt(        37) awaddr(00000004a0) burstLen(  2) wdata:012347b7
ddr_system.sdram0 : at time  107540.0 ns WRITE: Bank = 1 Row = 0000, Col = 050, Data = zzzz
ddr_system.sdram0 : at time  107560.0 ns WRITE: Bank = 1 Row = 0000, Col = 051, Data = 0123
time( 107570.0 ns) axiWrCnt(        37) awaddr(00000004a0) burstLen(  1) wdata:012347bf
ddr_system.sdram0 : at time  107580.0 ns WRITE: Bank = 1 Row = 0000, Col = 052, Data = zzzz
ddr_system.sdram0 : at time  107600.0 ns WRITE: Bank = 1 Row = 0000, Col = 053, Data = 0123
time( 107670.0 ns) axiWrCnt(        38) awaddr(00000004c0) burstLen(  2) wdata:012347c7
ddr_system.sdram0 : at time  107680.0 ns WRITE: Bank = 1 Row = 0000, Col = 060, Data = zzzz
ddr_system.sdram0 : at time  107700.0 ns WRITE: Bank = 1 Row = 0000, Col = 061, Data = 0123
time( 107710.0 ns) axiWrCnt(        38) awaddr(00000004c0) burstLen(  1) wdata:012347cf
ddr_system.sdram0 : at time  107720.0 ns WRITE: Bank = 1 Row = 0000, Col = 062, Data = zzzz
ddr_system.sdram0 : at time  107740.0 ns WRITE: Bank = 1 Row = 0000, Col = 063, Data = 0123
time( 107810.0 ns) axiWrCnt(        39) awaddr(00000004e0) burstLen(  2) wdata:012347d7
ddr_system.sdram0 : at time  107820.0 ns WRITE: Bank = 1 Row = 0000, Col = 070, Data = zzzz
ddr_system.sdram0 : at time  107840.0 ns WRITE: Bank = 1 Row = 0000, Col = 071, Data = 0123
time( 107850.0 ns) axiWrCnt(        39) awaddr(00000004e0) burstLen(  1) wdata:012347df
ddr_system.sdram0 : at time  107860.0 ns WRITE: Bank = 1 Row = 0000, Col = 072, Data = zzzz
ddr_system.sdram0 : at time  107880.0 ns WRITE: Bank = 1 Row = 0000, Col = 073, Data = 0123
time( 107950.0 ns) axiWrCnt(        40) awaddr(0000000500) burstLen(  2) wdata:012347e7
ddr_system.sdram0 : at time  107960.0 ns WRITE: Bank = 1 Row = 0000, Col = 080, Data = zzzz
ddr_system.sdram0 : at time  107980.0 ns WRITE: Bank = 1 Row = 0000, Col = 081, Data = 0123
time( 107990.0 ns) axiWrCnt(        40) awaddr(0000000500) burstLen(  1) wdata:012347ef
ddr_system.sdram0 : at time  108000.0 ns WRITE: Bank = 1 Row = 0000, Col = 082, Data = zzzz
ddr_system.sdram0 : at time  108020.0 ns WRITE: Bank = 1 Row = 0000, Col = 083, Data = 0123
time( 108090.0 ns) axiWrCnt(        41) awaddr(0000000520) burstLen(  2) wdata:012347f7
ddr_system.sdram0 : at time  108100.0 ns WRITE: Bank = 1 Row = 0000, Col = 090, Data = zzzz
ddr_system.sdram0 : at time  108120.0 ns WRITE: Bank = 1 Row = 0000, Col = 091, Data = 0123
time( 108130.0 ns) axiWrCnt(        41) awaddr(0000000520) burstLen(  1) wdata:012347ff
ddr_system.sdram0 : at time  108140.0 ns WRITE: Bank = 1 Row = 0000, Col = 092, Data = zzzz
ddr_system.sdram0 : at time  108160.0 ns WRITE: Bank = 1 Row = 0000, Col = 093, Data = 0123
time( 108230.0 ns) axiWrCnt(        42) awaddr(0000000540) burstLen(  2) wdata:01234807
ddr_system.sdram0 : at time  108240.0 ns WRITE: Bank = 1 Row = 0000, Col = 0a0, Data = zzzz
ddr_system.sdram0 : at time  108260.0 ns WRITE: Bank = 1 Row = 0000, Col = 0a1, Data = 0123
time( 108270.0 ns) axiWrCnt(        42) awaddr(0000000540) burstLen(  1) wdata:0123480f
ddr_system.sdram0 : at time  108280.0 ns WRITE: Bank = 1 Row = 0000, Col = 0a2, Data = zzzz
ddr_system.sdram0 : at time  108300.0 ns WRITE: Bank = 1 Row = 0000, Col = 0a3, Data = 0123
time( 108370.0 ns) axiWrCnt(        43) awaddr(0000000560) burstLen(  2) wdata:01234817
ddr_system.sdram0 : at time  108380.0 ns WRITE: Bank = 1 Row = 0000, Col = 0b0, Data = zzzz
ddr_system.sdram0 : at time  108400.0 ns WRITE: Bank = 1 Row = 0000, Col = 0b1, Data = 0123
time( 108410.0 ns) axiWrCnt(        43) awaddr(0000000560) burstLen(  1) wdata:0123481f
ddr_system.sdram0 : at time  108420.0 ns WRITE: Bank = 1 Row = 0000, Col = 0b2, Data = zzzz
ddr_system.sdram0 : at time  108440.0 ns WRITE: Bank = 1 Row = 0000, Col = 0b3, Data = 0123
time( 108510.0 ns) axiWrCnt(        44) awaddr(0000000580) burstLen(  2) wdata:01234827
ddr_system.sdram0 : at time  108520.0 ns WRITE: Bank = 1 Row = 0000, Col = 0c0, Data = zzzz
ddr_system.sdram0 : at time  108540.0 ns WRITE: Bank = 1 Row = 0000, Col = 0c1, Data = 0123
time( 108550.0 ns) axiWrCnt(        44) awaddr(0000000580) burstLen(  1) wdata:0123482f
ddr_system.sdram0 : at time  108560.0 ns WRITE: Bank = 1 Row = 0000, Col = 0c2, Data = zzzz
ddr_system.sdram0 : at time  108580.0 ns WRITE: Bank = 1 Row = 0000, Col = 0c3, Data = 0123
time( 108650.0 ns) axiWrCnt(        45) awaddr(00000005a0) burstLen(  2) wdata:01234837
ddr_system.sdram0 : at time  108660.0 ns WRITE: Bank = 1 Row = 0000, Col = 0d0, Data = zzzz
ddr_system.sdram0 : at time  108680.0 ns WRITE: Bank = 1 Row = 0000, Col = 0d1, Data = 0123
time( 108690.0 ns) axiWrCnt(        45) awaddr(00000005a0) burstLen(  1) wdata:0123483f
ddr_system.sdram0 : at time  108700.0 ns WRITE: Bank = 1 Row = 0000, Col = 0d2, Data = zzzz
ddr_system.sdram0 : at time  108720.0 ns WRITE: Bank = 1 Row = 0000, Col = 0d3, Data = 0123
time( 108790.0 ns) axiWrCnt(        46) awaddr(00000005c0) burstLen(  2) wdata:01234847
ddr_system.sdram0 : at time  108800.0 ns WRITE: Bank = 1 Row = 0000, Col = 0e0, Data = zzzz
ddr_system.sdram0 : at time  108820.0 ns WRITE: Bank = 1 Row = 0000, Col = 0e1, Data = 0123
time( 108830.0 ns) axiWrCnt(        46) awaddr(00000005c0) burstLen(  1) wdata:0123484f
ddr_system.sdram0 : at time  108840.0 ns WRITE: Bank = 1 Row = 0000, Col = 0e2, Data = zzzz
ddr_system.sdram0 : at time  108860.0 ns WRITE: Bank = 1 Row = 0000, Col = 0e3, Data = 0123
time( 108930.0 ns) axiWrCnt(        47) awaddr(00000005e0) burstLen(  2) wdata:01234857
ddr_system.sdram0 : at time  108940.0 ns WRITE: Bank = 1 Row = 0000, Col = 0f0, Data = zzzz
ddr_system.sdram0 : at time  108960.0 ns WRITE: Bank = 1 Row = 0000, Col = 0f1, Data = 0123
time( 108970.0 ns) axiWrCnt(        47) awaddr(00000005e0) burstLen(  1) wdata:0123485f
ddr_system.sdram0 : at time  108980.0 ns WRITE: Bank = 1 Row = 0000, Col = 0f2, Data = zzzz
ddr_system.sdram0 : at time  109000.0 ns WRITE: Bank = 1 Row = 0000, Col = 0f3, Data = 0123
time( 109070.0 ns) axiWrCnt(        48) awaddr(0000000600) burstLen(  2) wdata:01234867
ddr_system.sdram0 : at time  109080.0 ns WRITE: Bank = 1 Row = 0000, Col = 100, Data = zzzz
ddr_system.sdram0 : at time  109100.0 ns WRITE: Bank = 1 Row = 0000, Col = 101, Data = 0123
time( 109110.0 ns) axiWrCnt(        48) awaddr(0000000600) burstLen(  1) wdata:0123486f
ddr_system.sdram0 : at time  109120.0 ns WRITE: Bank = 1 Row = 0000, Col = 102, Data = zzzz
ddr_system.sdram0 : at time  109140.0 ns WRITE: Bank = 1 Row = 0000, Col = 103, Data = 0123
time( 109210.0 ns) axiWrCnt(        49) awaddr(0000000620) burstLen(  2) wdata:01234877
ddr_system.sdram0 : at time  109220.0 ns WRITE: Bank = 1 Row = 0000, Col = 110, Data = zzzz
ddr_system.sdram0 : at time  109240.0 ns WRITE: Bank = 1 Row = 0000, Col = 111, Data = 0123
time( 109250.0 ns) axiWrCnt(        49) awaddr(0000000620) burstLen(  1) wdata:0123487f
ddr_system.sdram0 : at time  109260.0 ns WRITE: Bank = 1 Row = 0000, Col = 112, Data = zzzz
ddr_system.sdram0 : at time  109280.0 ns WRITE: Bank = 1 Row = 0000, Col = 113, Data = 0123
time( 109350.0 ns) axiWrCnt(        50) awaddr(0000000640) burstLen(  2) wdata:01234887
ddr_system.sdram0 : at time  109360.0 ns WRITE: Bank = 1 Row = 0000, Col = 120, Data = zzzz
ddr_system.sdram0 : at time  109380.0 ns WRITE: Bank = 1 Row = 0000, Col = 121, Data = 0123
time( 109390.0 ns) axiWrCnt(        50) awaddr(0000000640) burstLen(  1) wdata:0123488f
ddr_system.sdram0 : at time  109400.0 ns WRITE: Bank = 1 Row = 0000, Col = 122, Data = zzzz
ddr_system.sdram0 : at time  109420.0 ns WRITE: Bank = 1 Row = 0000, Col = 123, Data = 0123
time( 109490.0 ns) axiWrCnt(        51) awaddr(0000000660) burstLen(  2) wdata:01234897
ddr_system.sdram0 : at time  109500.0 ns WRITE: Bank = 1 Row = 0000, Col = 130, Data = zzzz
ddr_system.sdram0 : at time  109520.0 ns WRITE: Bank = 1 Row = 0000, Col = 131, Data = 0123
time( 109530.0 ns) axiWrCnt(        51) awaddr(0000000660) burstLen(  1) wdata:0123489f
ddr_system.sdram0 : at time  109540.0 ns WRITE: Bank = 1 Row = 0000, Col = 132, Data = zzzz
ddr_system.sdram0 : at time  109560.0 ns WRITE: Bank = 1 Row = 0000, Col = 133, Data = 0123
time( 109630.0 ns) axiWrCnt(        52) awaddr(0000000680) burstLen(  2) wdata:012348a7
ddr_system.sdram0 : at time  109640.0 ns WRITE: Bank = 1 Row = 0000, Col = 140, Data = zzzz
ddr_system.sdram0 : at time  109660.0 ns WRITE: Bank = 1 Row = 0000, Col = 141, Data = 0123
time( 109670.0 ns) axiWrCnt(        52) awaddr(0000000680) burstLen(  1) wdata:012348af
ddr_system.sdram0 : at time  109680.0 ns WRITE: Bank = 1 Row = 0000, Col = 142, Data = zzzz
ddr_system.sdram0 : at time  109700.0 ns WRITE: Bank = 1 Row = 0000, Col = 143, Data = 0123
time( 109770.0 ns) axiWrCnt(        53) awaddr(00000006a0) burstLen(  2) wdata:012348b7
ddr_system.sdram0 : at time  109780.0 ns WRITE: Bank = 1 Row = 0000, Col = 150, Data = zzzz
ddr_system.sdram0 : at time  109800.0 ns WRITE: Bank = 1 Row = 0000, Col = 151, Data = 0123
time( 109810.0 ns) axiWrCnt(        53) awaddr(00000006a0) burstLen(  1) wdata:012348bf
ddr_system.sdram0 : at time  109820.0 ns WRITE: Bank = 1 Row = 0000, Col = 152, Data = zzzz
ddr_system.sdram0 : at time  109840.0 ns WRITE: Bank = 1 Row = 0000, Col = 153, Data = 0123
time( 109910.0 ns) axiWrCnt(        54) awaddr(00000006c0) burstLen(  2) wdata:012348c7
ddr_system.sdram0 : at time  109920.0 ns WRITE: Bank = 1 Row = 0000, Col = 160, Data = zzzz
ddr_system.sdram0 : at time  109940.0 ns WRITE: Bank = 1 Row = 0000, Col = 161, Data = 0123
ddr_system.sdram0 : at time  110020.0 ns AREF : Auto Refresh
ddr_system.sdram0 : at time  110120.0 ns ACT  : Bank = 1 Row = 0000
time( 110150.0 ns) axiWrCnt(        54) awaddr(00000006c0) burstLen(  1) wdata:012348cf
ddr_system.sdram0 : at time  110160.0 ns WRITE: Bank = 1 Row = 0000, Col = 162, Data = zzzz
ddr_system.sdram0 : at time  110180.0 ns WRITE: Bank = 1 Row = 0000, Col = 163, Data = 0123
time( 110250.0 ns) axiWrCnt(        55) awaddr(00000006e0) burstLen(  2) wdata:012348d7
ddr_system.sdram0 : at time  110260.0 ns WRITE: Bank = 1 Row = 0000, Col = 170, Data = zzzz
ddr_system.sdram0 : at time  110280.0 ns WRITE: Bank = 1 Row = 0000, Col = 171, Data = 0123
time( 110290.0 ns) axiWrCnt(        55) awaddr(00000006e0) burstLen(  1) wdata:012348df
ddr_system.sdram0 : at time  110300.0 ns WRITE: Bank = 1 Row = 0000, Col = 172, Data = zzzz
ddr_system.sdram0 : at time  110320.0 ns WRITE: Bank = 1 Row = 0000, Col = 173, Data = 0123
time( 110390.0 ns) axiWrCnt(        56) awaddr(0000000700) burstLen(  2) wdata:012348e7
ddr_system.sdram0 : at time  110400.0 ns WRITE: Bank = 1 Row = 0000, Col = 180, Data = zzzz
ddr_system.sdram0 : at time  110420.0 ns WRITE: Bank = 1 Row = 0000, Col = 181, Data = 0123
time( 110430.0 ns) axiWrCnt(        56) awaddr(0000000700) burstLen(  1) wdata:012348ef
ddr_system.sdram0 : at time  110440.0 ns WRITE: Bank = 1 Row = 0000, Col = 182, Data = zzzz
ddr_system.sdram0 : at time  110460.0 ns WRITE: Bank = 1 Row = 0000, Col = 183, Data = 0123
time( 110530.0 ns) axiWrCnt(        57) awaddr(0000000720) burstLen(  2) wdata:012348f7
ddr_system.sdram0 : at time  110540.0 ns WRITE: Bank = 1 Row = 0000, Col = 190, Data = zzzz
ddr_system.sdram0 : at time  110560.0 ns WRITE: Bank = 1 Row = 0000, Col = 191, Data = 0123
time( 110570.0 ns) axiWrCnt(        57) awaddr(0000000720) burstLen(  1) wdata:012348ff
ddr_system.sdram0 : at time  110580.0 ns WRITE: Bank = 1 Row = 0000, Col = 192, Data = zzzz
ddr_system.sdram0 : at time  110600.0 ns WRITE: Bank = 1 Row = 0000, Col = 193, Data = 0123
time( 110670.0 ns) axiWrCnt(        58) awaddr(0000000740) burstLen(  2) wdata:01234907
ddr_system.sdram0 : at time  110680.0 ns WRITE: Bank = 1 Row = 0000, Col = 1a0, Data = zzzz
ddr_system.sdram0 : at time  110700.0 ns WRITE: Bank = 1 Row = 0000, Col = 1a1, Data = 0123
time( 110710.0 ns) axiWrCnt(        58) awaddr(0000000740) burstLen(  1) wdata:0123490f
ddr_system.sdram0 : at time  110720.0 ns WRITE: Bank = 1 Row = 0000, Col = 1a2, Data = zzzz
ddr_system.sdram0 : at time  110740.0 ns WRITE: Bank = 1 Row = 0000, Col = 1a3, Data = 0123
time( 110810.0 ns) axiWrCnt(        59) awaddr(0000000760) burstLen(  2) wdata:01234917
ddr_system.sdram0 : at time  110820.0 ns WRITE: Bank = 1 Row = 0000, Col = 1b0, Data = zzzz
ddr_system.sdram0 : at time  110840.0 ns WRITE: Bank = 1 Row = 0000, Col = 1b1, Data = 0123
time( 110850.0 ns) axiWrCnt(        59) awaddr(0000000760) burstLen(  1) wdata:0123491f
ddr_system.sdram0 : at time  110860.0 ns WRITE: Bank = 1 Row = 0000, Col = 1b2, Data = zzzz
ddr_system.sdram0 : at time  110880.0 ns WRITE: Bank = 1 Row = 0000, Col = 1b3, Data = 0123
time( 110950.0 ns) axiWrCnt(        60) awaddr(0000000780) burstLen(  2) wdata:01234927
ddr_system.sdram0 : at time  110960.0 ns WRITE: Bank = 1 Row = 0000, Col = 1c0, Data = zzzz
ddr_system.sdram0 : at time  110980.0 ns WRITE: Bank = 1 Row = 0000, Col = 1c1, Data = 0123
time( 110990.0 ns) axiWrCnt(        60) awaddr(0000000780) burstLen(  1) wdata:0123492f
ddr_system.sdram0 : at time  111000.0 ns WRITE: Bank = 1 Row = 0000, Col = 1c2, Data = zzzz
ddr_system.sdram0 : at time  111020.0 ns WRITE: Bank = 1 Row = 0000, Col = 1c3, Data = 0123
time( 111090.0 ns) axiWrCnt(        61) awaddr(00000007a0) burstLen(  2) wdata:01234937
ddr_system.sdram0 : at time  111100.0 ns WRITE: Bank = 1 Row = 0000, Col = 1d0, Data = zzzz
ddr_system.sdram0 : at time  111120.0 ns WRITE: Bank = 1 Row = 0000, Col = 1d1, Data = 0123
time( 111130.0 ns) axiWrCnt(        61) awaddr(00000007a0) burstLen(  1) wdata:0123493f
ddr_system.sdram0 : at time  111140.0 ns WRITE: Bank = 1 Row = 0000, Col = 1d2, Data = zzzz
ddr_system.sdram0 : at time  111160.0 ns WRITE: Bank = 1 Row = 0000, Col = 1d3, Data = 0123
time( 111230.0 ns) axiWrCnt(        62) awaddr(00000007c0) burstLen(  2) wdata:01234947
ddr_system.sdram0 : at time  111240.0 ns WRITE: Bank = 1 Row = 0000, Col = 1e0, Data = zzzz
ddr_system.sdram0 : at time  111260.0 ns WRITE: Bank = 1 Row = 0000, Col = 1e1, Data = 0123
time( 111270.0 ns) axiWrCnt(        62) awaddr(00000007c0) burstLen(  1) wdata:0123494f
ddr_system.sdram0 : at time  111280.0 ns WRITE: Bank = 1 Row = 0000, Col = 1e2, Data = zzzz
ddr_system.sdram0 : at time  111300.0 ns WRITE: Bank = 1 Row = 0000, Col = 1e3, Data = 0123
time( 111370.0 ns) axiWrCnt(        63) awaddr(00000007e0) burstLen(  2) wdata:01234957
ddr_system.sdram0 : at time  111380.0 ns WRITE: Bank = 1 Row = 0000, Col = 1f0, Data = zzzz
ddr_system.sdram0 : at time  111400.0 ns WRITE: Bank = 1 Row = 0000, Col = 1f1, Data = 0123
time( 111410.0 ns) axiWrCnt(        63) awaddr(00000007e0) burstLen(  1) wdata:0123495f
ddr_system.sdram0 : at time  111420.0 ns WRITE: Bank = 1 Row = 0000, Col = 1f2, Data = zzzz
ddr_system.sdram0 : at time  111440.0 ns WRITE: Bank = 1 Row = 0000, Col = 1f3, Data = 0123
ddr_system.sdram0 : at time  111520.0 ns ACT  : Bank = 2 Row = 0000
time( 111550.0 ns) axiWrCnt(        64) awaddr(0000000800) burstLen(  2) wdata:01234967
ddr_system.sdram0 : at time  111560.0 ns WRITE: Bank = 2 Row = 0000, Col = 000, Data = zzzz
ddr_system.sdram0 : at time  111580.0 ns WRITE: Bank = 2 Row = 0000, Col = 001, Data = 0123
time( 111590.0 ns) axiWrCnt(        64) awaddr(0000000800) burstLen(  1) wdata:0123496f
ddr_system.sdram0 : at time  111600.0 ns WRITE: Bank = 2 Row = 0000, Col = 002, Data = zzzz
ddr_system.sdram0 : at time  111620.0 ns WRITE: Bank = 2 Row = 0000, Col = 003, Data = 0123
time( 111690.0 ns) axiWrCnt(        65) awaddr(0000000820) burstLen(  2) wdata:01234977
ddr_system.sdram0 : at time  111700.0 ns WRITE: Bank = 2 Row = 0000, Col = 010, Data = zzzz
ddr_system.sdram0 : at time  111720.0 ns WRITE: Bank = 2 Row = 0000, Col = 011, Data = 0123
time( 111730.0 ns) axiWrCnt(        65) awaddr(0000000820) burstLen(  1) wdata:0123497f
ddr_system.sdram0 : at time  111740.0 ns WRITE: Bank = 2 Row = 0000, Col = 012, Data = zzzz
ddr_system.sdram0 : at time  111760.0 ns WRITE: Bank = 2 Row = 0000, Col = 013, Data = 0123
time( 111830.0 ns) axiWrCnt(        66) awaddr(0000000840) burstLen(  2) wdata:01234987
ddr_system.sdram0 : at time  111840.0 ns WRITE: Bank = 2 Row = 0000, Col = 020, Data = zzzz
ddr_system.sdram0 : at time  111860.0 ns WRITE: Bank = 2 Row = 0000, Col = 021, Data = 0123
time( 111870.0 ns) axiWrCnt(        66) awaddr(0000000840) burstLen(  1) wdata:0123498f
ddr_system.sdram0 : at time  111880.0 ns WRITE: Bank = 2 Row = 0000, Col = 022, Data = zzzz
ddr_system.sdram0 : at time  111900.0 ns WRITE: Bank = 2 Row = 0000, Col = 023, Data = 0123
time( 111970.0 ns) axiWrCnt(        67) awaddr(0000000860) burstLen(  2) wdata:01234997
ddr_system.sdram0 : at time  111980.0 ns WRITE: Bank = 2 Row = 0000, Col = 030, Data = zzzz
ddr_system.sdram0 : at time  112000.0 ns WRITE: Bank = 2 Row = 0000, Col = 031, Data = 0123
time( 112010.0 ns) axiWrCnt(        67) awaddr(0000000860) burstLen(  1) wdata:0123499f
ddr_system.sdram0 : at time  112020.0 ns WRITE: Bank = 2 Row = 0000, Col = 032, Data = zzzz
ddr_system.sdram0 : at time  112040.0 ns WRITE: Bank = 2 Row = 0000, Col = 033, Data = 0123
time( 112110.0 ns) axiWrCnt(        68) awaddr(0000000880) burstLen(  2) wdata:012349a7
ddr_system.sdram0 : at time  112120.0 ns WRITE: Bank = 2 Row = 0000, Col = 040, Data = zzzz
ddr_system.sdram0 : at time  112140.0 ns WRITE: Bank = 2 Row = 0000, Col = 041, Data = 0123
time( 112150.0 ns) axiWrCnt(        68) awaddr(0000000880) burstLen(  1) wdata:012349af
ddr_system.sdram0 : at time  112160.0 ns WRITE: Bank = 2 Row = 0000, Col = 042, Data = zzzz
ddr_system.sdram0 : at time  112180.0 ns WRITE: Bank = 2 Row = 0000, Col = 043, Data = 0123
time( 112250.0 ns) axiWrCnt(        69) awaddr(00000008a0) burstLen(  2) wdata:012349b7
ddr_system.sdram0 : at time  112260.0 ns WRITE: Bank = 2 Row = 0000, Col = 050, Data = zzzz
ddr_system.sdram0 : at time  112280.0 ns WRITE: Bank = 2 Row = 0000, Col = 051, Data = 0123
time( 112290.0 ns) axiWrCnt(        69) awaddr(00000008a0) burstLen(  1) wdata:012349bf
ddr_system.sdram0 : at time  112300.0 ns WRITE: Bank = 2 Row = 0000, Col = 052, Data = zzzz
ddr_system.sdram0 : at time  112320.0 ns WRITE: Bank = 2 Row = 0000, Col = 053, Data = 0123
time( 112390.0 ns) axiWrCnt(        70) awaddr(00000008c0) burstLen(  2) wdata:012349c7
ddr_system.sdram0 : at time  112400.0 ns WRITE: Bank = 2 Row = 0000, Col = 060, Data = zzzz
ddr_system.sdram0 : at time  112420.0 ns WRITE: Bank = 2 Row = 0000, Col = 061, Data = 0123
time( 112430.0 ns) axiWrCnt(        70) awaddr(00000008c0) burstLen(  1) wdata:012349cf
ddr_system.sdram0 : at time  112440.0 ns WRITE: Bank = 2 Row = 0000, Col = 062, Data = zzzz
ddr_system.sdram0 : at time  112460.0 ns WRITE: Bank = 2 Row = 0000, Col = 063, Data = 0123
time( 112530.0 ns) axiWrCnt(        71) awaddr(00000008e0) burstLen(  2) wdata:012349d7
ddr_system.sdram0 : at time  112540.0 ns WRITE: Bank = 2 Row = 0000, Col = 070, Data = zzzz
ddr_system.sdram0 : at time  112560.0 ns WRITE: Bank = 2 Row = 0000, Col = 071, Data = 0123
time( 112570.0 ns) axiWrCnt(        71) awaddr(00000008e0) burstLen(  1) wdata:012349df
ddr_system.sdram0 : at time  112580.0 ns WRITE: Bank = 2 Row = 0000, Col = 072, Data = zzzz
ddr_system.sdram0 : at time  112600.0 ns WRITE: Bank = 2 Row = 0000, Col = 073, Data = 0123
time( 112670.0 ns) axiWrCnt(        72) awaddr(0000000900) burstLen(  2) wdata:012349e7
ddr_system.sdram0 : at time  112680.0 ns WRITE: Bank = 2 Row = 0000, Col = 080, Data = zzzz
ddr_system.sdram0 : at time  112700.0 ns WRITE: Bank = 2 Row = 0000, Col = 081, Data = 0123
time( 112710.0 ns) axiWrCnt(        72) awaddr(0000000900) burstLen(  1) wdata:012349ef
ddr_system.sdram0 : at time  112720.0 ns WRITE: Bank = 2 Row = 0000, Col = 082, Data = zzzz
ddr_system.sdram0 : at time  112740.0 ns WRITE: Bank = 2 Row = 0000, Col = 083, Data = 0123
time( 112810.0 ns) axiWrCnt(        73) awaddr(0000000920) burstLen(  2) wdata:012349f7
ddr_system.sdram0 : at time  112820.0 ns WRITE: Bank = 2 Row = 0000, Col = 090, Data = zzzz
ddr_system.sdram0 : at time  112840.0 ns WRITE: Bank = 2 Row = 0000, Col = 091, Data = 0123
time( 112850.0 ns) axiWrCnt(        73) awaddr(0000000920) burstLen(  1) wdata:012349ff
ddr_system.sdram0 : at time  112860.0 ns WRITE: Bank = 2 Row = 0000, Col = 092, Data = zzzz
ddr_system.sdram0 : at time  112880.0 ns WRITE: Bank = 2 Row = 0000, Col = 093, Data = 0123
time( 112950.0 ns) axiWrCnt(        74) awaddr(0000000940) burstLen(  2) wdata:01234a07
ddr_system.sdram0 : at time  112960.0 ns WRITE: Bank = 2 Row = 0000, Col = 0a0, Data = zzzz
ddr_system.sdram0 : at time  112980.0 ns WRITE: Bank = 2 Row = 0000, Col = 0a1, Data = 0123
time( 112990.0 ns) axiWrCnt(        74) awaddr(0000000940) burstLen(  1) wdata:01234a0f
ddr_system.sdram0 : at time  113000.0 ns WRITE: Bank = 2 Row = 0000, Col = 0a2, Data = zzzz
ddr_system.sdram0 : at time  113020.0 ns WRITE: Bank = 2 Row = 0000, Col = 0a3, Data = 0123
time( 113090.0 ns) axiWrCnt(        75) awaddr(0000000960) burstLen(  2) wdata:01234a17
ddr_system.sdram0 : at time  113100.0 ns WRITE: Bank = 2 Row = 0000, Col = 0b0, Data = zzzz
ddr_system.sdram0 : at time  113120.0 ns WRITE: Bank = 2 Row = 0000, Col = 0b1, Data = 0123
time( 113130.0 ns) axiWrCnt(        75) awaddr(0000000960) burstLen(  1) wdata:01234a1f
ddr_system.sdram0 : at time  113140.0 ns WRITE: Bank = 2 Row = 0000, Col = 0b2, Data = zzzz
ddr_system.sdram0 : at time  113160.0 ns WRITE: Bank = 2 Row = 0000, Col = 0b3, Data = 0123
time( 113230.0 ns) axiWrCnt(        76) awaddr(0000000980) burstLen(  2) wdata:01234a27
ddr_system.sdram0 : at time  113240.0 ns WRITE: Bank = 2 Row = 0000, Col = 0c0, Data = zzzz
ddr_system.sdram0 : at time  113260.0 ns WRITE: Bank = 2 Row = 0000, Col = 0c1, Data = 0123
time( 113270.0 ns) axiWrCnt(        76) awaddr(0000000980) burstLen(  1) wdata:01234a2f
ddr_system.sdram0 : at time  113280.0 ns WRITE: Bank = 2 Row = 0000, Col = 0c2, Data = zzzz
ddr_system.sdram0 : at time  113300.0 ns WRITE: Bank = 2 Row = 0000, Col = 0c3, Data = 0123
time( 113370.0 ns) axiWrCnt(        77) awaddr(00000009a0) burstLen(  2) wdata:01234a37
ddr_system.sdram0 : at time  113380.0 ns WRITE: Bank = 2 Row = 0000, Col = 0d0, Data = zzzz
ddr_system.sdram0 : at time  113400.0 ns WRITE: Bank = 2 Row = 0000, Col = 0d1, Data = 0123
time( 113410.0 ns) axiWrCnt(        77) awaddr(00000009a0) burstLen(  1) wdata:01234a3f
ddr_system.sdram0 : at time  113420.0 ns WRITE: Bank = 2 Row = 0000, Col = 0d2, Data = zzzz
ddr_system.sdram0 : at time  113440.0 ns WRITE: Bank = 2 Row = 0000, Col = 0d3, Data = 0123
time( 113510.0 ns) axiWrCnt(        78) awaddr(00000009c0) burstLen(  2) wdata:01234a47
ddr_system.sdram0 : at time  113520.0 ns WRITE: Bank = 2 Row = 0000, Col = 0e0, Data = zzzz
ddr_system.sdram0 : at time  113540.0 ns WRITE: Bank = 2 Row = 0000, Col = 0e1, Data = 0123
time( 113550.0 ns) axiWrCnt(        78) awaddr(00000009c0) burstLen(  1) wdata:01234a4f
ddr_system.sdram0 : at time  113560.0 ns WRITE: Bank = 2 Row = 0000, Col = 0e2, Data = zzzz
ddr_system.sdram0 : at time  113580.0 ns WRITE: Bank = 2 Row = 0000, Col = 0e3, Data = 0123
time( 113650.0 ns) axiWrCnt(        79) awaddr(00000009e0) burstLen(  2) wdata:01234a57
ddr_system.sdram0 : at time  113660.0 ns WRITE: Bank = 2 Row = 0000, Col = 0f0, Data = zzzz
ddr_system.sdram0 : at time  113680.0 ns WRITE: Bank = 2 Row = 0000, Col = 0f1, Data = 0123
time( 113690.0 ns) axiWrCnt(        79) awaddr(00000009e0) burstLen(  1) wdata:01234a5f
ddr_system.sdram0 : at time  113700.0 ns WRITE: Bank = 2 Row = 0000, Col = 0f2, Data = zzzz
ddr_system.sdram0 : at time  113720.0 ns WRITE: Bank = 2 Row = 0000, Col = 0f3, Data = 0123
time( 113790.0 ns) axiWrCnt(        80) awaddr(0000000a00) burstLen(  2) wdata:01234a67
ddr_system.sdram0 : at time  113800.0 ns WRITE: Bank = 2 Row = 0000, Col = 100, Data = zzzz
ddr_system.sdram0 : at time  113820.0 ns WRITE: Bank = 2 Row = 0000, Col = 101, Data = 0123
time( 113830.0 ns) axiWrCnt(        80) awaddr(0000000a00) burstLen(  1) wdata:01234a6f
ddr_system.sdram0 : at time  113840.0 ns WRITE: Bank = 2 Row = 0000, Col = 102, Data = zzzz
ddr_system.sdram0 : at time  113860.0 ns WRITE: Bank = 2 Row = 0000, Col = 103, Data = 0123
time( 113930.0 ns) axiWrCnt(        81) awaddr(0000000a20) burstLen(  2) wdata:01234a77
ddr_system.sdram0 : at time  113940.0 ns WRITE: Bank = 2 Row = 0000, Col = 110, Data = zzzz
ddr_system.sdram0 : at time  113960.0 ns WRITE: Bank = 2 Row = 0000, Col = 111, Data = 0123
time( 113970.0 ns) axiWrCnt(        81) awaddr(0000000a20) burstLen(  1) wdata:01234a7f
ddr_system.sdram0 : at time  113980.0 ns WRITE: Bank = 2 Row = 0000, Col = 112, Data = zzzz
ddr_system.sdram0 : at time  114000.0 ns WRITE: Bank = 2 Row = 0000, Col = 113, Data = 0123
time( 114070.0 ns) axiWrCnt(        82) awaddr(0000000a40) burstLen(  2) wdata:01234a87
ddr_system.sdram0 : at time  114080.0 ns WRITE: Bank = 2 Row = 0000, Col = 120, Data = zzzz
ddr_system.sdram0 : at time  114100.0 ns WRITE: Bank = 2 Row = 0000, Col = 121, Data = 0123
time( 114110.0 ns) axiWrCnt(        82) awaddr(0000000a40) burstLen(  1) wdata:01234a8f
ddr_system.sdram0 : at time  114120.0 ns WRITE: Bank = 2 Row = 0000, Col = 122, Data = zzzz
ddr_system.sdram0 : at time  114140.0 ns WRITE: Bank = 2 Row = 0000, Col = 123, Data = 0123
time( 114210.0 ns) axiWrCnt(        83) awaddr(0000000a60) burstLen(  2) wdata:01234a97
ddr_system.sdram0 : at time  114220.0 ns WRITE: Bank = 2 Row = 0000, Col = 130, Data = zzzz
ddr_system.sdram0 : at time  114240.0 ns WRITE: Bank = 2 Row = 0000, Col = 131, Data = 0123
time( 114250.0 ns) axiWrCnt(        83) awaddr(0000000a60) burstLen(  1) wdata:01234a9f
ddr_system.sdram0 : at time  114260.0 ns WRITE: Bank = 2 Row = 0000, Col = 132, Data = zzzz
ddr_system.sdram0 : at time  114280.0 ns WRITE: Bank = 2 Row = 0000, Col = 133, Data = 0123
time( 114350.0 ns) axiWrCnt(        84) awaddr(0000000a80) burstLen(  2) wdata:01234aa7
ddr_system.sdram0 : at time  114360.0 ns WRITE: Bank = 2 Row = 0000, Col = 140, Data = zzzz
ddr_system.sdram0 : at time  114380.0 ns WRITE: Bank = 2 Row = 0000, Col = 141, Data = 0123
time( 114390.0 ns) axiWrCnt(        84) awaddr(0000000a80) burstLen(  1) wdata:01234aaf
ddr_system.sdram0 : at time  114400.0 ns WRITE: Bank = 2 Row = 0000, Col = 142, Data = zzzz
ddr_system.sdram0 : at time  114420.0 ns WRITE: Bank = 2 Row = 0000, Col = 143, Data = 0123
time( 114490.0 ns) axiWrCnt(        85) awaddr(0000000aa0) burstLen(  2) wdata:01234ab7
ddr_system.sdram0 : at time  114500.0 ns WRITE: Bank = 2 Row = 0000, Col = 150, Data = zzzz
ddr_system.sdram0 : at time  114520.0 ns WRITE: Bank = 2 Row = 0000, Col = 151, Data = 0123
time( 114530.0 ns) axiWrCnt(        85) awaddr(0000000aa0) burstLen(  1) wdata:01234abf
ddr_system.sdram0 : at time  114540.0 ns WRITE: Bank = 2 Row = 0000, Col = 152, Data = zzzz
ddr_system.sdram0 : at time  114560.0 ns WRITE: Bank = 2 Row = 0000, Col = 153, Data = 0123
time( 114630.0 ns) axiWrCnt(        86) awaddr(0000000ac0) burstLen(  2) wdata:01234ac7
ddr_system.sdram0 : at time  114640.0 ns WRITE: Bank = 2 Row = 0000, Col = 160, Data = zzzz
ddr_system.sdram0 : at time  114660.0 ns WRITE: Bank = 2 Row = 0000, Col = 161, Data = 0123
time( 114670.0 ns) axiWrCnt(        86) awaddr(0000000ac0) burstLen(  1) wdata:01234acf
ddr_system.sdram0 : at time  114680.0 ns WRITE: Bank = 2 Row = 0000, Col = 162, Data = zzzz
ddr_system.sdram0 : at time  114700.0 ns WRITE: Bank = 2 Row = 0000, Col = 163, Data = 0123
time( 114770.0 ns) axiWrCnt(        87) awaddr(0000000ae0) burstLen(  2) wdata:01234ad7
ddr_system.sdram0 : at time  114780.0 ns WRITE: Bank = 2 Row = 0000, Col = 170, Data = zzzz
ddr_system.sdram0 : at time  114800.0 ns WRITE: Bank = 2 Row = 0000, Col = 171, Data = 0123
time( 114810.0 ns) axiWrCnt(        87) awaddr(0000000ae0) burstLen(  1) wdata:01234adf
ddr_system.sdram0 : at time  114820.0 ns WRITE: Bank = 2 Row = 0000, Col = 172, Data = zzzz
ddr_system.sdram0 : at time  114840.0 ns WRITE: Bank = 2 Row = 0000, Col = 173, Data = 0123
time( 114910.0 ns) axiWrCnt(        88) awaddr(0000000b00) burstLen(  2) wdata:01234ae7
ddr_system.sdram0 : at time  114920.0 ns WRITE: Bank = 2 Row = 0000, Col = 180, Data = zzzz
ddr_system.sdram0 : at time  114940.0 ns WRITE: Bank = 2 Row = 0000, Col = 181, Data = 0123
time( 114950.0 ns) axiWrCnt(        88) awaddr(0000000b00) burstLen(  1) wdata:01234aef
ddr_system.sdram0 : at time  114960.0 ns WRITE: Bank = 2 Row = 0000, Col = 182, Data = zzzz
ddr_system.sdram0 : at time  114980.0 ns WRITE: Bank = 2 Row = 0000, Col = 183, Data = 0123
time( 115050.0 ns) axiWrCnt(        89) awaddr(0000000b20) burstLen(  2) wdata:01234af7
ddr_system.sdram0 : at time  115060.0 ns WRITE: Bank = 2 Row = 0000, Col = 190, Data = zzzz
ddr_system.sdram0 : at time  115080.0 ns WRITE: Bank = 2 Row = 0000, Col = 191, Data = 0123
time( 115090.0 ns) axiWrCnt(        89) awaddr(0000000b20) burstLen(  1) wdata:01234aff
ddr_system.sdram0 : at time  115100.0 ns WRITE: Bank = 2 Row = 0000, Col = 192, Data = zzzz
ddr_system.sdram0 : at time  115120.0 ns WRITE: Bank = 2 Row = 0000, Col = 193, Data = 0123
time( 115190.0 ns) axiWrCnt(        90) awaddr(0000000b40) burstLen(  2) wdata:01234b07
ddr_system.sdram0 : at time  115200.0 ns WRITE: Bank = 2 Row = 0000, Col = 1a0, Data = zzzz
ddr_system.sdram0 : at time  115220.0 ns WRITE: Bank = 2 Row = 0000, Col = 1a1, Data = 0123
time( 115230.0 ns) axiWrCnt(        90) awaddr(0000000b40) burstLen(  1) wdata:01234b0f
ddr_system.sdram0 : at time  115240.0 ns WRITE: Bank = 2 Row = 0000, Col = 1a2, Data = zzzz
ddr_system.sdram0 : at time  115260.0 ns WRITE: Bank = 2 Row = 0000, Col = 1a3, Data = 0123
time( 115330.0 ns) axiWrCnt(        91) awaddr(0000000b60) burstLen(  2) wdata:01234b17
ddr_system.sdram0 : at time  115340.0 ns WRITE: Bank = 2 Row = 0000, Col = 1b0, Data = zzzz
ddr_system.sdram0 : at time  115360.0 ns WRITE: Bank = 2 Row = 0000, Col = 1b1, Data = 0123
time( 115370.0 ns) axiWrCnt(        91) awaddr(0000000b60) burstLen(  1) wdata:01234b1f
ddr_system.sdram0 : at time  115380.0 ns WRITE: Bank = 2 Row = 0000, Col = 1b2, Data = zzzz
ddr_system.sdram0 : at time  115400.0 ns WRITE: Bank = 2 Row = 0000, Col = 1b3, Data = 0123
time( 115470.0 ns) axiWrCnt(        92) awaddr(0000000b80) burstLen(  2) wdata:01234b27
ddr_system.sdram0 : at time  115480.0 ns WRITE: Bank = 2 Row = 0000, Col = 1c0, Data = zzzz
ddr_system.sdram0 : at time  115500.0 ns WRITE: Bank = 2 Row = 0000, Col = 1c1, Data = 0123
time( 115510.0 ns) axiWrCnt(        92) awaddr(0000000b80) burstLen(  1) wdata:01234b2f
ddr_system.sdram0 : at time  115520.0 ns WRITE: Bank = 2 Row = 0000, Col = 1c2, Data = zzzz
ddr_system.sdram0 : at time  115540.0 ns WRITE: Bank = 2 Row = 0000, Col = 1c3, Data = 0123
time( 115610.0 ns) axiWrCnt(        93) awaddr(0000000ba0) burstLen(  2) wdata:01234b37
ddr_system.sdram0 : at time  115620.0 ns WRITE: Bank = 2 Row = 0000, Col = 1d0, Data = zzzz
ddr_system.sdram0 : at time  115640.0 ns WRITE: Bank = 2 Row = 0000, Col = 1d1, Data = 0123
time( 115650.0 ns) axiWrCnt(        93) awaddr(0000000ba0) burstLen(  1) wdata:01234b3f
ddr_system.sdram0 : at time  115660.0 ns WRITE: Bank = 2 Row = 0000, Col = 1d2, Data = zzzz
ddr_system.sdram0 : at time  115680.0 ns WRITE: Bank = 2 Row = 0000, Col = 1d3, Data = 0123
time( 115750.0 ns) axiWrCnt(        94) awaddr(0000000bc0) burstLen(  2) wdata:01234b47
ddr_system.sdram0 : at time  115760.0 ns WRITE: Bank = 2 Row = 0000, Col = 1e0, Data = zzzz
ddr_system.sdram0 : at time  115780.0 ns WRITE: Bank = 2 Row = 0000, Col = 1e1, Data = 0123
time( 115790.0 ns) axiWrCnt(        94) awaddr(0000000bc0) burstLen(  1) wdata:01234b4f
ddr_system.sdram0 : at time  115800.0 ns WRITE: Bank = 2 Row = 0000, Col = 1e2, Data = zzzz
ddr_system.sdram0 : at time  115820.0 ns WRITE: Bank = 2 Row = 0000, Col = 1e3, Data = 0123
time( 115890.0 ns) axiWrCnt(        95) awaddr(0000000be0) burstLen(  2) wdata:01234b57
ddr_system.sdram0 : at time  115900.0 ns WRITE: Bank = 2 Row = 0000, Col = 1f0, Data = zzzz
ddr_system.sdram0 : at time  115920.0 ns WRITE: Bank = 2 Row = 0000, Col = 1f1, Data = 0123
time( 115930.0 ns) axiWrCnt(        95) awaddr(0000000be0) burstLen(  1) wdata:01234b5f
ddr_system.sdram0 : at time  115940.0 ns WRITE: Bank = 2 Row = 0000, Col = 1f2, Data = zzzz
ddr_system.sdram0 : at time  115960.0 ns WRITE: Bank = 2 Row = 0000, Col = 1f3, Data = 0123
ddr_system.sdram0 : at time  116040.0 ns ACT  : Bank = 3 Row = 0000
time( 116070.0 ns) axiWrCnt(        96) awaddr(0000000c00) burstLen(  2) wdata:01234b67
ddr_system.sdram0 : at time  116080.0 ns WRITE: Bank = 3 Row = 0000, Col = 000, Data = zzzz
ddr_system.sdram0 : at time  116100.0 ns WRITE: Bank = 3 Row = 0000, Col = 001, Data = 0123
time( 116110.0 ns) axiWrCnt(        96) awaddr(0000000c00) burstLen(  1) wdata:01234b6f
ddr_system.sdram0 : at time  116120.0 ns WRITE: Bank = 3 Row = 0000, Col = 002, Data = zzzz
ddr_system.sdram0 : at time  116140.0 ns WRITE: Bank = 3 Row = 0000, Col = 003, Data = 0123
time( 116210.0 ns) axiWrCnt(        97) awaddr(0000000c20) burstLen(  2) wdata:01234b77
ddr_system.sdram0 : at time  116220.0 ns WRITE: Bank = 3 Row = 0000, Col = 010, Data = zzzz
ddr_system.sdram0 : at time  116240.0 ns WRITE: Bank = 3 Row = 0000, Col = 011, Data = 0123
time( 116250.0 ns) axiWrCnt(        97) awaddr(0000000c20) burstLen(  1) wdata:01234b7f
ddr_system.sdram0 : at time  116260.0 ns WRITE: Bank = 3 Row = 0000, Col = 012, Data = zzzz
ddr_system.sdram0 : at time  116280.0 ns WRITE: Bank = 3 Row = 0000, Col = 013, Data = 0123
time( 116350.0 ns) axiWrCnt(        98) awaddr(0000000c40) burstLen(  2) wdata:01234b87
ddr_system.sdram0 : at time  116360.0 ns WRITE: Bank = 3 Row = 0000, Col = 020, Data = zzzz
ddr_system.sdram0 : at time  116380.0 ns WRITE: Bank = 3 Row = 0000, Col = 021, Data = 0123
time( 116390.0 ns) axiWrCnt(        98) awaddr(0000000c40) burstLen(  1) wdata:01234b8f
ddr_system.sdram0 : at time  116400.0 ns WRITE: Bank = 3 Row = 0000, Col = 022, Data = zzzz
ddr_system.sdram0 : at time  116420.0 ns WRITE: Bank = 3 Row = 0000, Col = 023, Data = 0123
time( 116490.0 ns) axiWrCnt(        99) awaddr(0000000c60) burstLen(  2) wdata:01234b97
ddr_system.sdram0 : at time  116500.0 ns WRITE: Bank = 3 Row = 0000, Col = 030, Data = zzzz
ddr_system.sdram0 : at time  116520.0 ns WRITE: Bank = 3 Row = 0000, Col = 031, Data = 0123
time( 116530.0 ns) axiWrCnt(        99) awaddr(0000000c60) burstLen(  1) wdata:01234b9f
ddr_system.sdram0 : at time  116540.0 ns WRITE: Bank = 3 Row = 0000, Col = 032, Data = zzzz
ddr_system.sdram0 : at time  116560.0 ns WRITE: Bank = 3 Row = 0000, Col = 033, Data = 0123
time( 116630.0 ns) axiWrCnt(       100) awaddr(0000000c80) burstLen(  2) wdata:01234ba7
ddr_system.sdram0 : at time  116640.0 ns WRITE: Bank = 3 Row = 0000, Col = 040, Data = zzzz
ddr_system.sdram0 : at time  116660.0 ns WRITE: Bank = 3 Row = 0000, Col = 041, Data = 0123
time( 116670.0 ns) axiWrCnt(       100) awaddr(0000000c80) burstLen(  1) wdata:01234baf
ddr_system.sdram0 : at time  116680.0 ns WRITE: Bank = 3 Row = 0000, Col = 042, Data = zzzz
ddr_system.sdram0 : at time  116700.0 ns WRITE: Bank = 3 Row = 0000, Col = 043, Data = 0123
time( 116770.0 ns) axiWrCnt(       101) awaddr(0000000ca0) burstLen(  2) wdata:01234bb7
ddr_system.sdram0 : at time  116780.0 ns WRITE: Bank = 3 Row = 0000, Col = 050, Data = zzzz
ddr_system.sdram0 : at time  116800.0 ns WRITE: Bank = 3 Row = 0000, Col = 051, Data = 0123
time( 116810.0 ns) axiWrCnt(       101) awaddr(0000000ca0) burstLen(  1) wdata:01234bbf
ddr_system.sdram0 : at time  116820.0 ns WRITE: Bank = 3 Row = 0000, Col = 052, Data = zzzz
ddr_system.sdram0 : at time  116840.0 ns WRITE: Bank = 3 Row = 0000, Col = 053, Data = 0123
time( 116910.0 ns) axiWrCnt(       102) awaddr(0000000cc0) burstLen(  2) wdata:01234bc7
ddr_system.sdram0 : at time  116920.0 ns WRITE: Bank = 3 Row = 0000, Col = 060, Data = zzzz
ddr_system.sdram0 : at time  116940.0 ns WRITE: Bank = 3 Row = 0000, Col = 061, Data = 0123
time( 116950.0 ns) axiWrCnt(       102) awaddr(0000000cc0) burstLen(  1) wdata:01234bcf
ddr_system.sdram0 : at time  116960.0 ns WRITE: Bank = 3 Row = 0000, Col = 062, Data = zzzz
ddr_system.sdram0 : at time  116980.0 ns WRITE: Bank = 3 Row = 0000, Col = 063, Data = 0123
time( 117050.0 ns) axiWrCnt(       103) awaddr(0000000ce0) burstLen(  2) wdata:01234bd7
ddr_system.sdram0 : at time  117060.0 ns WRITE: Bank = 3 Row = 0000, Col = 070, Data = zzzz
ddr_system.sdram0 : at time  117080.0 ns WRITE: Bank = 3 Row = 0000, Col = 071, Data = 0123
time( 117090.0 ns) axiWrCnt(       103) awaddr(0000000ce0) burstLen(  1) wdata:01234bdf
ddr_system.sdram0 : at time  117100.0 ns WRITE: Bank = 3 Row = 0000, Col = 072, Data = zzzz
ddr_system.sdram0 : at time  117120.0 ns WRITE: Bank = 3 Row = 0000, Col = 073, Data = 0123
time( 117190.0 ns) axiWrCnt(       104) awaddr(0000000d00) burstLen(  2) wdata:01234be7
ddr_system.sdram0 : at time  117200.0 ns WRITE: Bank = 3 Row = 0000, Col = 080, Data = zzzz
ddr_system.sdram0 : at time  117220.0 ns WRITE: Bank = 3 Row = 0000, Col = 081, Data = 0123
time( 117230.0 ns) axiWrCnt(       104) awaddr(0000000d00) burstLen(  1) wdata:01234bef
ddr_system.sdram0 : at time  117240.0 ns WRITE: Bank = 3 Row = 0000, Col = 082, Data = zzzz
ddr_system.sdram0 : at time  117260.0 ns WRITE: Bank = 3 Row = 0000, Col = 083, Data = 0123
time( 117330.0 ns) axiWrCnt(       105) awaddr(0000000d20) burstLen(  2) wdata:01234bf7
ddr_system.sdram0 : at time  117340.0 ns WRITE: Bank = 3 Row = 0000, Col = 090, Data = zzzz
ddr_system.sdram0 : at time  117360.0 ns WRITE: Bank = 3 Row = 0000, Col = 091, Data = 0123
time( 117370.0 ns) axiWrCnt(       105) awaddr(0000000d20) burstLen(  1) wdata:01234bff
ddr_system.sdram0 : at time  117380.0 ns WRITE: Bank = 3 Row = 0000, Col = 092, Data = zzzz
ddr_system.sdram0 : at time  117400.0 ns WRITE: Bank = 3 Row = 0000, Col = 093, Data = 0123
time( 117470.0 ns) axiWrCnt(       106) awaddr(0000000d40) burstLen(  2) wdata:01234c07
ddr_system.sdram0 : at time  117480.0 ns WRITE: Bank = 3 Row = 0000, Col = 0a0, Data = zzzz
ddr_system.sdram0 : at time  117500.0 ns WRITE: Bank = 3 Row = 0000, Col = 0a1, Data = 0123
time( 117510.0 ns) axiWrCnt(       106) awaddr(0000000d40) burstLen(  1) wdata:01234c0f
ddr_system.sdram0 : at time  117520.0 ns WRITE: Bank = 3 Row = 0000, Col = 0a2, Data = zzzz
ddr_system.sdram0 : at time  117540.0 ns WRITE: Bank = 3 Row = 0000, Col = 0a3, Data = 0123
time( 117610.0 ns) axiWrCnt(       107) awaddr(0000000d60) burstLen(  2) wdata:01234c17
ddr_system.sdram0 : at time  117620.0 ns WRITE: Bank = 3 Row = 0000, Col = 0b0, Data = zzzz
ddr_system.sdram0 : at time  117640.0 ns WRITE: Bank = 3 Row = 0000, Col = 0b1, Data = 0123
time( 117650.0 ns) axiWrCnt(       107) awaddr(0000000d60) burstLen(  1) wdata:01234c1f
ddr_system.sdram0 : at time  117660.0 ns WRITE: Bank = 3 Row = 0000, Col = 0b2, Data = zzzz
ddr_system.sdram0 : at time  117680.0 ns WRITE: Bank = 3 Row = 0000, Col = 0b3, Data = 0123
ddr_system.sdram0 : at time  117800.0 ns AREF : Auto Refresh
ddr_system.sdram0 : at time  117900.0 ns ACT  : Bank = 3 Row = 0000
time( 117930.0 ns) axiWrCnt(       108) awaddr(0000000d80) burstLen(  2) wdata:01234c27
ddr_system.sdram0 : at time  117940.0 ns WRITE: Bank = 3 Row = 0000, Col = 0c0, Data = zzzz
ddr_system.sdram0 : at time  117960.0 ns WRITE: Bank = 3 Row = 0000, Col = 0c1, Data = 0123
time( 117970.0 ns) axiWrCnt(       108) awaddr(0000000d80) burstLen(  1) wdata:01234c2f
ddr_system.sdram0 : at time  117980.0 ns WRITE: Bank = 3 Row = 0000, Col = 0c2, Data = zzzz
ddr_system.sdram0 : at time  118000.0 ns WRITE: Bank = 3 Row = 0000, Col = 0c3, Data = 0123
time( 118070.0 ns) axiWrCnt(       109) awaddr(0000000da0) burstLen(  2) wdata:01234c37
ddr_system.sdram0 : at time  118080.0 ns WRITE: Bank = 3 Row = 0000, Col = 0d0, Data = zzzz
ddr_system.sdram0 : at time  118100.0 ns WRITE: Bank = 3 Row = 0000, Col = 0d1, Data = 0123
time( 118110.0 ns) axiWrCnt(       109) awaddr(0000000da0) burstLen(  1) wdata:01234c3f
ddr_system.sdram0 : at time  118120.0 ns WRITE: Bank = 3 Row = 0000, Col = 0d2, Data = zzzz
ddr_system.sdram0 : at time  118140.0 ns WRITE: Bank = 3 Row = 0000, Col = 0d3, Data = 0123
time( 118210.0 ns) axiWrCnt(       110) awaddr(0000000dc0) burstLen(  2) wdata:01234c47
ddr_system.sdram0 : at time  118220.0 ns WRITE: Bank = 3 Row = 0000, Col = 0e0, Data = zzzz
ddr_system.sdram0 : at time  118240.0 ns WRITE: Bank = 3 Row = 0000, Col = 0e1, Data = 0123
time( 118250.0 ns) axiWrCnt(       110) awaddr(0000000dc0) burstLen(  1) wdata:01234c4f
ddr_system.sdram0 : at time  118260.0 ns WRITE: Bank = 3 Row = 0000, Col = 0e2, Data = zzzz
ddr_system.sdram0 : at time  118280.0 ns WRITE: Bank = 3 Row = 0000, Col = 0e3, Data = 0123
time( 118350.0 ns) axiWrCnt(       111) awaddr(0000000de0) burstLen(  2) wdata:01234c57
ddr_system.sdram0 : at time  118360.0 ns WRITE: Bank = 3 Row = 0000, Col = 0f0, Data = zzzz
ddr_system.sdram0 : at time  118380.0 ns WRITE: Bank = 3 Row = 0000, Col = 0f1, Data = 0123
time( 118390.0 ns) axiWrCnt(       111) awaddr(0000000de0) burstLen(  1) wdata:01234c5f
ddr_system.sdram0 : at time  118400.0 ns WRITE: Bank = 3 Row = 0000, Col = 0f2, Data = zzzz
ddr_system.sdram0 : at time  118420.0 ns WRITE: Bank = 3 Row = 0000, Col = 0f3, Data = 0123
time( 118490.0 ns) axiWrCnt(       112) awaddr(0000000e00) burstLen(  2) wdata:01234c67
ddr_system.sdram0 : at time  118500.0 ns WRITE: Bank = 3 Row = 0000, Col = 100, Data = zzzz
ddr_system.sdram0 : at time  118520.0 ns WRITE: Bank = 3 Row = 0000, Col = 101, Data = 0123
time( 118530.0 ns) axiWrCnt(       112) awaddr(0000000e00) burstLen(  1) wdata:01234c6f
ddr_system.sdram0 : at time  118540.0 ns WRITE: Bank = 3 Row = 0000, Col = 102, Data = zzzz
ddr_system.sdram0 : at time  118560.0 ns WRITE: Bank = 3 Row = 0000, Col = 103, Data = 0123
time( 118630.0 ns) axiWrCnt(       113) awaddr(0000000e20) burstLen(  2) wdata:01234c77
ddr_system.sdram0 : at time  118640.0 ns WRITE: Bank = 3 Row = 0000, Col = 110, Data = zzzz
ddr_system.sdram0 : at time  118660.0 ns WRITE: Bank = 3 Row = 0000, Col = 111, Data = 0123
time( 118670.0 ns) axiWrCnt(       113) awaddr(0000000e20) burstLen(  1) wdata:01234c7f
ddr_system.sdram0 : at time  118680.0 ns WRITE: Bank = 3 Row = 0000, Col = 112, Data = zzzz
ddr_system.sdram0 : at time  118700.0 ns WRITE: Bank = 3 Row = 0000, Col = 113, Data = 0123
time( 118770.0 ns) axiWrCnt(       114) awaddr(0000000e40) burstLen(  2) wdata:01234c87
ddr_system.sdram0 : at time  118780.0 ns WRITE: Bank = 3 Row = 0000, Col = 120, Data = zzzz
ddr_system.sdram0 : at time  118800.0 ns WRITE: Bank = 3 Row = 0000, Col = 121, Data = 0123
time( 118810.0 ns) axiWrCnt(       114) awaddr(0000000e40) burstLen(  1) wdata:01234c8f
ddr_system.sdram0 : at time  118820.0 ns WRITE: Bank = 3 Row = 0000, Col = 122, Data = zzzz
ddr_system.sdram0 : at time  118840.0 ns WRITE: Bank = 3 Row = 0000, Col = 123, Data = 0123
time( 118910.0 ns) axiWrCnt(       115) awaddr(0000000e60) burstLen(  2) wdata:01234c97
ddr_system.sdram0 : at time  118920.0 ns WRITE: Bank = 3 Row = 0000, Col = 130, Data = zzzz
ddr_system.sdram0 : at time  118940.0 ns WRITE: Bank = 3 Row = 0000, Col = 131, Data = 0123
time( 118950.0 ns) axiWrCnt(       115) awaddr(0000000e60) burstLen(  1) wdata:01234c9f
ddr_system.sdram0 : at time  118960.0 ns WRITE: Bank = 3 Row = 0000, Col = 132, Data = zzzz
ddr_system.sdram0 : at time  118980.0 ns WRITE: Bank = 3 Row = 0000, Col = 133, Data = 0123
time( 119050.0 ns) axiWrCnt(       116) awaddr(0000000e80) burstLen(  2) wdata:01234ca7
ddr_system.sdram0 : at time  119060.0 ns WRITE: Bank = 3 Row = 0000, Col = 140, Data = zzzz
ddr_system.sdram0 : at time  119080.0 ns WRITE: Bank = 3 Row = 0000, Col = 141, Data = 0123
time( 119090.0 ns) axiWrCnt(       116) awaddr(0000000e80) burstLen(  1) wdata:01234caf
ddr_system.sdram0 : at time  119100.0 ns WRITE: Bank = 3 Row = 0000, Col = 142, Data = zzzz
ddr_system.sdram0 : at time  119120.0 ns WRITE: Bank = 3 Row = 0000, Col = 143, Data = 0123
time( 119190.0 ns) axiWrCnt(       117) awaddr(0000000ea0) burstLen(  2) wdata:01234cb7
ddr_system.sdram0 : at time  119200.0 ns WRITE: Bank = 3 Row = 0000, Col = 150, Data = zzzz
ddr_system.sdram0 : at time  119220.0 ns WRITE: Bank = 3 Row = 0000, Col = 151, Data = 0123
time( 119230.0 ns) axiWrCnt(       117) awaddr(0000000ea0) burstLen(  1) wdata:01234cbf
ddr_system.sdram0 : at time  119240.0 ns WRITE: Bank = 3 Row = 0000, Col = 152, Data = zzzz
ddr_system.sdram0 : at time  119260.0 ns WRITE: Bank = 3 Row = 0000, Col = 153, Data = 0123
time( 119330.0 ns) axiWrCnt(       118) awaddr(0000000ec0) burstLen(  2) wdata:01234cc7
ddr_system.sdram0 : at time  119340.0 ns WRITE: Bank = 3 Row = 0000, Col = 160, Data = zzzz
ddr_system.sdram0 : at time  119360.0 ns WRITE: Bank = 3 Row = 0000, Col = 161, Data = 0123
time( 119370.0 ns) axiWrCnt(       118) awaddr(0000000ec0) burstLen(  1) wdata:01234ccf
ddr_system.sdram0 : at time  119380.0 ns WRITE: Bank = 3 Row = 0000, Col = 162, Data = zzzz
ddr_system.sdram0 : at time  119400.0 ns WRITE: Bank = 3 Row = 0000, Col = 163, Data = 0123
time( 119470.0 ns) axiWrCnt(       119) awaddr(0000000ee0) burstLen(  2) wdata:01234cd7
ddr_system.sdram0 : at time  119480.0 ns WRITE: Bank = 3 Row = 0000, Col = 170, Data = zzzz
ddr_system.sdram0 : at time  119500.0 ns WRITE: Bank = 3 Row = 0000, Col = 171, Data = 0123
time( 119510.0 ns) axiWrCnt(       119) awaddr(0000000ee0) burstLen(  1) wdata:01234cdf
ddr_system.sdram0 : at time  119520.0 ns WRITE: Bank = 3 Row = 0000, Col = 172, Data = zzzz
ddr_system.sdram0 : at time  119540.0 ns WRITE: Bank = 3 Row = 0000, Col = 173, Data = 0123
time( 119610.0 ns) axiWrCnt(       120) awaddr(0000000f00) burstLen(  2) wdata:01234ce7
ddr_system.sdram0 : at time  119620.0 ns WRITE: Bank = 3 Row = 0000, Col = 180, Data = zzzz
ddr_system.sdram0 : at time  119640.0 ns WRITE: Bank = 3 Row = 0000, Col = 181, Data = 0123
time( 119650.0 ns) axiWrCnt(       120) awaddr(0000000f00) burstLen(  1) wdata:01234cef
ddr_system.sdram0 : at time  119660.0 ns WRITE: Bank = 3 Row = 0000, Col = 182, Data = zzzz
ddr_system.sdram0 : at time  119680.0 ns WRITE: Bank = 3 Row = 0000, Col = 183, Data = 0123
time( 119750.0 ns) axiWrCnt(       121) awaddr(0000000f20) burstLen(  2) wdata:01234cf7
ddr_system.sdram0 : at time  119760.0 ns WRITE: Bank = 3 Row = 0000, Col = 190, Data = zzzz
ddr_system.sdram0 : at time  119780.0 ns WRITE: Bank = 3 Row = 0000, Col = 191, Data = 0123
time( 119790.0 ns) axiWrCnt(       121) awaddr(0000000f20) burstLen(  1) wdata:01234cff
ddr_system.sdram0 : at time  119800.0 ns WRITE: Bank = 3 Row = 0000, Col = 192, Data = zzzz
ddr_system.sdram0 : at time  119820.0 ns WRITE: Bank = 3 Row = 0000, Col = 193, Data = 0123
time( 119890.0 ns) axiWrCnt(       122) awaddr(0000000f40) burstLen(  2) wdata:01234d07
ddr_system.sdram0 : at time  119900.0 ns WRITE: Bank = 3 Row = 0000, Col = 1a0, Data = zzzz
ddr_system.sdram0 : at time  119920.0 ns WRITE: Bank = 3 Row = 0000, Col = 1a1, Data = 0123
time( 119930.0 ns) axiWrCnt(       122) awaddr(0000000f40) burstLen(  1) wdata:01234d0f
ddr_system.sdram0 : at time  119940.0 ns WRITE: Bank = 3 Row = 0000, Col = 1a2, Data = zzzz
ddr_system.sdram0 : at time  119960.0 ns WRITE: Bank = 3 Row = 0000, Col = 1a3, Data = 0123
time( 120030.0 ns) axiWrCnt(       123) awaddr(0000000f60) burstLen(  2) wdata:01234d17
ddr_system.sdram0 : at time  120040.0 ns WRITE: Bank = 3 Row = 0000, Col = 1b0, Data = zzzz
ddr_system.sdram0 : at time  120060.0 ns WRITE: Bank = 3 Row = 0000, Col = 1b1, Data = 0123
time( 120070.0 ns) axiWrCnt(       123) awaddr(0000000f60) burstLen(  1) wdata:01234d1f
ddr_system.sdram0 : at time  120080.0 ns WRITE: Bank = 3 Row = 0000, Col = 1b2, Data = zzzz
ddr_system.sdram0 : at time  120100.0 ns WRITE: Bank = 3 Row = 0000, Col = 1b3, Data = 0123
time( 120170.0 ns) axiWrCnt(       124) awaddr(0000000f80) burstLen(  2) wdata:01234d27
ddr_system.sdram0 : at time  120180.0 ns WRITE: Bank = 3 Row = 0000, Col = 1c0, Data = zzzz
ddr_system.sdram0 : at time  120200.0 ns WRITE: Bank = 3 Row = 0000, Col = 1c1, Data = 0123
time( 120210.0 ns) axiWrCnt(       124) awaddr(0000000f80) burstLen(  1) wdata:01234d2f
ddr_system.sdram0 : at time  120220.0 ns WRITE: Bank = 3 Row = 0000, Col = 1c2, Data = zzzz
ddr_system.sdram0 : at time  120240.0 ns WRITE: Bank = 3 Row = 0000, Col = 1c3, Data = 0123
time( 120310.0 ns) axiWrCnt(       125) awaddr(0000000fa0) burstLen(  2) wdata:01234d37
ddr_system.sdram0 : at time  120320.0 ns WRITE: Bank = 3 Row = 0000, Col = 1d0, Data = zzzz
ddr_system.sdram0 : at time  120340.0 ns WRITE: Bank = 3 Row = 0000, Col = 1d1, Data = 0123
time( 120350.0 ns) axiWrCnt(       125) awaddr(0000000fa0) burstLen(  1) wdata:01234d3f
ddr_system.sdram0 : at time  120360.0 ns WRITE: Bank = 3 Row = 0000, Col = 1d2, Data = zzzz
ddr_system.sdram0 : at time  120380.0 ns WRITE: Bank = 3 Row = 0000, Col = 1d3, Data = 0123
time( 120450.0 ns) axiWrCnt(       126) awaddr(0000000fc0) burstLen(  2) wdata:01234d47
ddr_system.sdram0 : at time  120460.0 ns WRITE: Bank = 3 Row = 0000, Col = 1e0, Data = zzzz
ddr_system.sdram0 : at time  120480.0 ns WRITE: Bank = 3 Row = 0000, Col = 1e1, Data = 0123
time( 120490.0 ns) axiWrCnt(       126) awaddr(0000000fc0) burstLen(  1) wdata:01234d4f
ddr_system.sdram0 : at time  120500.0 ns WRITE: Bank = 3 Row = 0000, Col = 1e2, Data = zzzz
ddr_system.sdram0 : at time  120520.0 ns WRITE: Bank = 3 Row = 0000, Col = 1e3, Data = 0123
time( 120590.0 ns) axiWrCnt(       127) awaddr(0000000fe0) burstLen(  2) wdata:01234d57
ddr_system.sdram0 : at time  120600.0 ns WRITE: Bank = 3 Row = 0000, Col = 1f0, Data = zzzz
ddr_system.sdram0 : at time  120620.0 ns WRITE: Bank = 3 Row = 0000, Col = 1f1, Data = 0123
time( 120630.0 ns) axiWrCnt(       127) awaddr(0000000fe0) burstLen(  1) wdata:01234d5f
ddr_system.sdram0 : at time  120640.0 ns WRITE: Bank = 3 Row = 0000, Col = 1f2, Data = zzzz
ddr_system.sdram0 : at time  120660.0 ns WRITE: Bank = 3 Row = 0000, Col = 1f3, Data = 0123
ddr_system.sdram0 : at time  120740.0 ns ACT  : Bank = 0 Row = 0001
time( 120770.0 ns) axiWrCnt(       128) awaddr(0000001000) burstLen(  2) wdata:01234d67
ddr_system.sdram0 : at time  120780.0 ns WRITE: Bank = 0 Row = 0001, Col = 000, Data = zzzz
ddr_system.sdram0 : at time  120800.0 ns WRITE: Bank = 0 Row = 0001, Col = 001, Data = 0123
time( 120810.0 ns) axiWrCnt(       128) awaddr(0000001000) burstLen(  1) wdata:01234d6f
ddr_system.sdram0 : at time  120820.0 ns WRITE: Bank = 0 Row = 0001, Col = 002, Data = zzzz
ddr_system.sdram0 : at time  120840.0 ns WRITE: Bank = 0 Row = 0001, Col = 003, Data = 0123
time( 120910.0 ns) axiWrCnt(       129) awaddr(0000001020) burstLen(  2) wdata:01234d77
ddr_system.sdram0 : at time  120920.0 ns WRITE: Bank = 0 Row = 0001, Col = 010, Data = zzzz
ddr_system.sdram0 : at time  120940.0 ns WRITE: Bank = 0 Row = 0001, Col = 011, Data = 0123
time( 120950.0 ns) axiWrCnt(       129) awaddr(0000001020) burstLen(  1) wdata:01234d7f
ddr_system.sdram0 : at time  120960.0 ns WRITE: Bank = 0 Row = 0001, Col = 012, Data = zzzz
ddr_system.sdram0 : at time  120980.0 ns WRITE: Bank = 0 Row = 0001, Col = 013, Data = 0123
time( 121050.0 ns) axiWrCnt(       130) awaddr(0000001040) burstLen(  2) wdata:01234d87
ddr_system.sdram0 : at time  121060.0 ns WRITE: Bank = 0 Row = 0001, Col = 020, Data = zzzz
ddr_system.sdram0 : at time  121080.0 ns WRITE: Bank = 0 Row = 0001, Col = 021, Data = 0123
time( 121090.0 ns) axiWrCnt(       130) awaddr(0000001040) burstLen(  1) wdata:01234d8f
ddr_system.sdram0 : at time  121100.0 ns WRITE: Bank = 0 Row = 0001, Col = 022, Data = zzzz
ddr_system.sdram0 : at time  121120.0 ns WRITE: Bank = 0 Row = 0001, Col = 023, Data = 0123
time( 121190.0 ns) axiWrCnt(       131) awaddr(0000001060) burstLen(  2) wdata:01234d97
ddr_system.sdram0 : at time  121200.0 ns WRITE: Bank = 0 Row = 0001, Col = 030, Data = zzzz
ddr_system.sdram0 : at time  121220.0 ns WRITE: Bank = 0 Row = 0001, Col = 031, Data = 0123
time( 121230.0 ns) axiWrCnt(       131) awaddr(0000001060) burstLen(  1) wdata:01234d9f
ddr_system.sdram0 : at time  121240.0 ns WRITE: Bank = 0 Row = 0001, Col = 032, Data = zzzz
ddr_system.sdram0 : at time  121260.0 ns WRITE: Bank = 0 Row = 0001, Col = 033, Data = 0123
time( 121330.0 ns) axiWrCnt(       132) awaddr(0000001080) burstLen(  2) wdata:01234da7
ddr_system.sdram0 : at time  121340.0 ns WRITE: Bank = 0 Row = 0001, Col = 040, Data = zzzz
ddr_system.sdram0 : at time  121360.0 ns WRITE: Bank = 0 Row = 0001, Col = 041, Data = 0123
time( 121370.0 ns) axiWrCnt(       132) awaddr(0000001080) burstLen(  1) wdata:01234daf
ddr_system.sdram0 : at time  121380.0 ns WRITE: Bank = 0 Row = 0001, Col = 042, Data = zzzz
ddr_system.sdram0 : at time  121400.0 ns WRITE: Bank = 0 Row = 0001, Col = 043, Data = 0123
time( 121470.0 ns) axiWrCnt(       133) awaddr(00000010a0) burstLen(  2) wdata:01234db7
ddr_system.sdram0 : at time  121480.0 ns WRITE: Bank = 0 Row = 0001, Col = 050, Data = zzzz
ddr_system.sdram0 : at time  121500.0 ns WRITE: Bank = 0 Row = 0001, Col = 051, Data = 0123
time( 121510.0 ns) axiWrCnt(       133) awaddr(00000010a0) burstLen(  1) wdata:01234dbf
ddr_system.sdram0 : at time  121520.0 ns WRITE: Bank = 0 Row = 0001, Col = 052, Data = zzzz
ddr_system.sdram0 : at time  121540.0 ns WRITE: Bank = 0 Row = 0001, Col = 053, Data = 0123
time( 121610.0 ns) axiWrCnt(       134) awaddr(00000010c0) burstLen(  2) wdata:01234dc7
ddr_system.sdram0 : at time  121620.0 ns WRITE: Bank = 0 Row = 0001, Col = 060, Data = zzzz
ddr_system.sdram0 : at time  121640.0 ns WRITE: Bank = 0 Row = 0001, Col = 061, Data = 0123
time( 121650.0 ns) axiWrCnt(       134) awaddr(00000010c0) burstLen(  1) wdata:01234dcf
ddr_system.sdram0 : at time  121660.0 ns WRITE: Bank = 0 Row = 0001, Col = 062, Data = zzzz
ddr_system.sdram0 : at time  121680.0 ns WRITE: Bank = 0 Row = 0001, Col = 063, Data = 0123
time( 121750.0 ns) axiWrCnt(       135) awaddr(00000010e0) burstLen(  2) wdata:01234dd7
ddr_system.sdram0 : at time  121760.0 ns WRITE: Bank = 0 Row = 0001, Col = 070, Data = zzzz
ddr_system.sdram0 : at time  121780.0 ns WRITE: Bank = 0 Row = 0001, Col = 071, Data = 0123
time( 121790.0 ns) axiWrCnt(       135) awaddr(00000010e0) burstLen(  1) wdata:01234ddf
ddr_system.sdram0 : at time  121800.0 ns WRITE: Bank = 0 Row = 0001, Col = 072, Data = zzzz
ddr_system.sdram0 : at time  121820.0 ns WRITE: Bank = 0 Row = 0001, Col = 073, Data = 0123
time( 121890.0 ns) axiWrCnt(       136) awaddr(0000001100) burstLen(  2) wdata:01234de7
ddr_system.sdram0 : at time  121900.0 ns WRITE: Bank = 0 Row = 0001, Col = 080, Data = zzzz
ddr_system.sdram0 : at time  121920.0 ns WRITE: Bank = 0 Row = 0001, Col = 081, Data = 0123
time( 121930.0 ns) axiWrCnt(       136) awaddr(0000001100) burstLen(  1) wdata:01234def
ddr_system.sdram0 : at time  121940.0 ns WRITE: Bank = 0 Row = 0001, Col = 082, Data = zzzz
ddr_system.sdram0 : at time  121960.0 ns WRITE: Bank = 0 Row = 0001, Col = 083, Data = 0123
time( 122030.0 ns) axiWrCnt(       137) awaddr(0000001120) burstLen(  2) wdata:01234df7
ddr_system.sdram0 : at time  122040.0 ns WRITE: Bank = 0 Row = 0001, Col = 090, Data = zzzz
ddr_system.sdram0 : at time  122060.0 ns WRITE: Bank = 0 Row = 0001, Col = 091, Data = 0123
time( 122070.0 ns) axiWrCnt(       137) awaddr(0000001120) burstLen(  1) wdata:01234dff
ddr_system.sdram0 : at time  122080.0 ns WRITE: Bank = 0 Row = 0001, Col = 092, Data = zzzz
ddr_system.sdram0 : at time  122100.0 ns WRITE: Bank = 0 Row = 0001, Col = 093, Data = 0123
time( 122170.0 ns) axiWrCnt(       138) awaddr(0000001140) burstLen(  2) wdata:01234e07
ddr_system.sdram0 : at time  122180.0 ns WRITE: Bank = 0 Row = 0001, Col = 0a0, Data = zzzz
ddr_system.sdram0 : at time  122200.0 ns WRITE: Bank = 0 Row = 0001, Col = 0a1, Data = 0123
time( 122210.0 ns) axiWrCnt(       138) awaddr(0000001140) burstLen(  1) wdata:01234e0f
ddr_system.sdram0 : at time  122220.0 ns WRITE: Bank = 0 Row = 0001, Col = 0a2, Data = zzzz
ddr_system.sdram0 : at time  122240.0 ns WRITE: Bank = 0 Row = 0001, Col = 0a3, Data = 0123
time( 122310.0 ns) axiWrCnt(       139) awaddr(0000001160) burstLen(  2) wdata:01234e17
ddr_system.sdram0 : at time  122320.0 ns WRITE: Bank = 0 Row = 0001, Col = 0b0, Data = zzzz
ddr_system.sdram0 : at time  122340.0 ns WRITE: Bank = 0 Row = 0001, Col = 0b1, Data = 0123
time( 122350.0 ns) axiWrCnt(       139) awaddr(0000001160) burstLen(  1) wdata:01234e1f
ddr_system.sdram0 : at time  122360.0 ns WRITE: Bank = 0 Row = 0001, Col = 0b2, Data = zzzz
ddr_system.sdram0 : at time  122380.0 ns WRITE: Bank = 0 Row = 0001, Col = 0b3, Data = 0123
time( 122450.0 ns) axiWrCnt(       140) awaddr(0000001180) burstLen(  2) wdata:01234e27
ddr_system.sdram0 : at time  122460.0 ns WRITE: Bank = 0 Row = 0001, Col = 0c0, Data = zzzz
ddr_system.sdram0 : at time  122480.0 ns WRITE: Bank = 0 Row = 0001, Col = 0c1, Data = 0123
time( 122490.0 ns) axiWrCnt(       140) awaddr(0000001180) burstLen(  1) wdata:01234e2f
ddr_system.sdram0 : at time  122500.0 ns WRITE: Bank = 0 Row = 0001, Col = 0c2, Data = zzzz
ddr_system.sdram0 : at time  122520.0 ns WRITE: Bank = 0 Row = 0001, Col = 0c3, Data = 0123
time( 122590.0 ns) axiWrCnt(       141) awaddr(00000011a0) burstLen(  2) wdata:01234e37
ddr_system.sdram0 : at time  122600.0 ns WRITE: Bank = 0 Row = 0001, Col = 0d0, Data = zzzz
ddr_system.sdram0 : at time  122620.0 ns WRITE: Bank = 0 Row = 0001, Col = 0d1, Data = 0123
time( 122630.0 ns) axiWrCnt(       141) awaddr(00000011a0) burstLen(  1) wdata:01234e3f
ddr_system.sdram0 : at time  122640.0 ns WRITE: Bank = 0 Row = 0001, Col = 0d2, Data = zzzz
ddr_system.sdram0 : at time  122660.0 ns WRITE: Bank = 0 Row = 0001, Col = 0d3, Data = 0123
time( 122730.0 ns) axiWrCnt(       142) awaddr(00000011c0) burstLen(  2) wdata:01234e47
ddr_system.sdram0 : at time  122740.0 ns WRITE: Bank = 0 Row = 0001, Col = 0e0, Data = zzzz
ddr_system.sdram0 : at time  122760.0 ns WRITE: Bank = 0 Row = 0001, Col = 0e1, Data = 0123
time( 122770.0 ns) axiWrCnt(       142) awaddr(00000011c0) burstLen(  1) wdata:01234e4f
ddr_system.sdram0 : at time  122780.0 ns WRITE: Bank = 0 Row = 0001, Col = 0e2, Data = zzzz
ddr_system.sdram0 : at time  122800.0 ns WRITE: Bank = 0 Row = 0001, Col = 0e3, Data = 0123
time( 122870.0 ns) axiWrCnt(       143) awaddr(00000011e0) burstLen(  2) wdata:01234e57
ddr_system.sdram0 : at time  122880.0 ns WRITE: Bank = 0 Row = 0001, Col = 0f0, Data = zzzz
ddr_system.sdram0 : at time  122900.0 ns WRITE: Bank = 0 Row = 0001, Col = 0f1, Data = 0123
time( 122910.0 ns) axiWrCnt(       143) awaddr(00000011e0) burstLen(  1) wdata:01234e5f
ddr_system.sdram0 : at time  122920.0 ns WRITE: Bank = 0 Row = 0001, Col = 0f2, Data = zzzz
ddr_system.sdram0 : at time  122940.0 ns WRITE: Bank = 0 Row = 0001, Col = 0f3, Data = 0123
time( 123010.0 ns) axiWrCnt(       144) awaddr(0000001200) burstLen(  2) wdata:01234e67
ddr_system.sdram0 : at time  123020.0 ns WRITE: Bank = 0 Row = 0001, Col = 100, Data = zzzz
ddr_system.sdram0 : at time  123040.0 ns WRITE: Bank = 0 Row = 0001, Col = 101, Data = 0123
time( 123050.0 ns) axiWrCnt(       144) awaddr(0000001200) burstLen(  1) wdata:01234e6f
ddr_system.sdram0 : at time  123060.0 ns WRITE: Bank = 0 Row = 0001, Col = 102, Data = zzzz
ddr_system.sdram0 : at time  123080.0 ns WRITE: Bank = 0 Row = 0001, Col = 103, Data = 0123
time( 123150.0 ns) axiWrCnt(       145) awaddr(0000001220) burstLen(  2) wdata:01234e77
ddr_system.sdram0 : at time  123160.0 ns WRITE: Bank = 0 Row = 0001, Col = 110, Data = zzzz
ddr_system.sdram0 : at time  123180.0 ns WRITE: Bank = 0 Row = 0001, Col = 111, Data = 0123
time( 123190.0 ns) axiWrCnt(       145) awaddr(0000001220) burstLen(  1) wdata:01234e7f
ddr_system.sdram0 : at time  123200.0 ns WRITE: Bank = 0 Row = 0001, Col = 112, Data = zzzz
ddr_system.sdram0 : at time  123220.0 ns WRITE: Bank = 0 Row = 0001, Col = 113, Data = 0123
time( 123290.0 ns) axiWrCnt(       146) awaddr(0000001240) burstLen(  2) wdata:01234e87
ddr_system.sdram0 : at time  123300.0 ns WRITE: Bank = 0 Row = 0001, Col = 120, Data = zzzz
ddr_system.sdram0 : at time  123320.0 ns WRITE: Bank = 0 Row = 0001, Col = 121, Data = 0123
time( 123330.0 ns) axiWrCnt(       146) awaddr(0000001240) burstLen(  1) wdata:01234e8f
ddr_system.sdram0 : at time  123340.0 ns WRITE: Bank = 0 Row = 0001, Col = 122, Data = zzzz
ddr_system.sdram0 : at time  123360.0 ns WRITE: Bank = 0 Row = 0001, Col = 123, Data = 0123
time( 123430.0 ns) axiWrCnt(       147) awaddr(0000001260) burstLen(  2) wdata:01234e97
ddr_system.sdram0 : at time  123440.0 ns WRITE: Bank = 0 Row = 0001, Col = 130, Data = zzzz
ddr_system.sdram0 : at time  123460.0 ns WRITE: Bank = 0 Row = 0001, Col = 131, Data = 0123
time( 123470.0 ns) axiWrCnt(       147) awaddr(0000001260) burstLen(  1) wdata:01234e9f
ddr_system.sdram0 : at time  123480.0 ns WRITE: Bank = 0 Row = 0001, Col = 132, Data = zzzz
ddr_system.sdram0 : at time  123500.0 ns WRITE: Bank = 0 Row = 0001, Col = 133, Data = 0123
time( 123570.0 ns) axiWrCnt(       148) awaddr(0000001280) burstLen(  2) wdata:01234ea7
ddr_system.sdram0 : at time  123580.0 ns WRITE: Bank = 0 Row = 0001, Col = 140, Data = zzzz
ddr_system.sdram0 : at time  123600.0 ns WRITE: Bank = 0 Row = 0001, Col = 141, Data = 0123
time( 123610.0 ns) axiWrCnt(       148) awaddr(0000001280) burstLen(  1) wdata:01234eaf
ddr_system.sdram0 : at time  123620.0 ns WRITE: Bank = 0 Row = 0001, Col = 142, Data = zzzz
ddr_system.sdram0 : at time  123640.0 ns WRITE: Bank = 0 Row = 0001, Col = 143, Data = 0123
time( 123710.0 ns) axiWrCnt(       149) awaddr(00000012a0) burstLen(  2) wdata:01234eb7
ddr_system.sdram0 : at time  123720.0 ns WRITE: Bank = 0 Row = 0001, Col = 150, Data = zzzz
ddr_system.sdram0 : at time  123740.0 ns WRITE: Bank = 0 Row = 0001, Col = 151, Data = 0123
time( 123750.0 ns) axiWrCnt(       149) awaddr(00000012a0) burstLen(  1) wdata:01234ebf
ddr_system.sdram0 : at time  123760.0 ns WRITE: Bank = 0 Row = 0001, Col = 152, Data = zzzz
ddr_system.sdram0 : at time  123780.0 ns WRITE: Bank = 0 Row = 0001, Col = 153, Data = 0123
time( 123850.0 ns) axiWrCnt(       150) awaddr(00000012c0) burstLen(  2) wdata:01234ec7
ddr_system.sdram0 : at time  123860.0 ns WRITE: Bank = 0 Row = 0001, Col = 160, Data = zzzz
ddr_system.sdram0 : at time  123880.0 ns WRITE: Bank = 0 Row = 0001, Col = 161, Data = 0123
time( 123890.0 ns) axiWrCnt(       150) awaddr(00000012c0) burstLen(  1) wdata:01234ecf
ddr_system.sdram0 : at time  123900.0 ns WRITE: Bank = 0 Row = 0001, Col = 162, Data = zzzz
ddr_system.sdram0 : at time  123920.0 ns WRITE: Bank = 0 Row = 0001, Col = 163, Data = 0123
time( 123990.0 ns) axiWrCnt(       151) awaddr(00000012e0) burstLen(  2) wdata:01234ed7
ddr_system.sdram0 : at time  124000.0 ns WRITE: Bank = 0 Row = 0001, Col = 170, Data = zzzz
ddr_system.sdram0 : at time  124020.0 ns WRITE: Bank = 0 Row = 0001, Col = 171, Data = 0123
time( 124030.0 ns) axiWrCnt(       151) awaddr(00000012e0) burstLen(  1) wdata:01234edf
ddr_system.sdram0 : at time  124040.0 ns WRITE: Bank = 0 Row = 0001, Col = 172, Data = zzzz
ddr_system.sdram0 : at time  124060.0 ns WRITE: Bank = 0 Row = 0001, Col = 173, Data = 0123
time( 124130.0 ns) axiWrCnt(       152) awaddr(0000001300) burstLen(  2) wdata:01234ee7
ddr_system.sdram0 : at time  124140.0 ns WRITE: Bank = 0 Row = 0001, Col = 180, Data = zzzz
ddr_system.sdram0 : at time  124160.0 ns WRITE: Bank = 0 Row = 0001, Col = 181, Data = 0123
time( 124170.0 ns) axiWrCnt(       152) awaddr(0000001300) burstLen(  1) wdata:01234eef
ddr_system.sdram0 : at time  124180.0 ns WRITE: Bank = 0 Row = 0001, Col = 182, Data = zzzz
ddr_system.sdram0 : at time  124200.0 ns WRITE: Bank = 0 Row = 0001, Col = 183, Data = 0123
time( 124270.0 ns) axiWrCnt(       153) awaddr(0000001320) burstLen(  2) wdata:01234ef7
ddr_system.sdram0 : at time  124280.0 ns WRITE: Bank = 0 Row = 0001, Col = 190, Data = zzzz
ddr_system.sdram0 : at time  124300.0 ns WRITE: Bank = 0 Row = 0001, Col = 191, Data = 0123
time( 124310.0 ns) axiWrCnt(       153) awaddr(0000001320) burstLen(  1) wdata:01234eff
ddr_system.sdram0 : at time  124320.0 ns WRITE: Bank = 0 Row = 0001, Col = 192, Data = zzzz
ddr_system.sdram0 : at time  124340.0 ns WRITE: Bank = 0 Row = 0001, Col = 193, Data = 0123
time( 124410.0 ns) axiWrCnt(       154) awaddr(0000001340) burstLen(  2) wdata:01234f07
ddr_system.sdram0 : at time  124420.0 ns WRITE: Bank = 0 Row = 0001, Col = 1a0, Data = zzzz
ddr_system.sdram0 : at time  124440.0 ns WRITE: Bank = 0 Row = 0001, Col = 1a1, Data = 0123
time( 124450.0 ns) axiWrCnt(       154) awaddr(0000001340) burstLen(  1) wdata:01234f0f
ddr_system.sdram0 : at time  124460.0 ns WRITE: Bank = 0 Row = 0001, Col = 1a2, Data = zzzz
ddr_system.sdram0 : at time  124480.0 ns WRITE: Bank = 0 Row = 0001, Col = 1a3, Data = 0123
time( 124550.0 ns) axiWrCnt(       155) awaddr(0000001360) burstLen(  2) wdata:01234f17
ddr_system.sdram0 : at time  124560.0 ns WRITE: Bank = 0 Row = 0001, Col = 1b0, Data = zzzz
ddr_system.sdram0 : at time  124580.0 ns WRITE: Bank = 0 Row = 0001, Col = 1b1, Data = 0123
time( 124590.0 ns) axiWrCnt(       155) awaddr(0000001360) burstLen(  1) wdata:01234f1f
ddr_system.sdram0 : at time  124600.0 ns WRITE: Bank = 0 Row = 0001, Col = 1b2, Data = zzzz
ddr_system.sdram0 : at time  124620.0 ns WRITE: Bank = 0 Row = 0001, Col = 1b3, Data = 0123
time( 124690.0 ns) axiWrCnt(       156) awaddr(0000001380) burstLen(  2) wdata:01234f27
ddr_system.sdram0 : at time  124700.0 ns WRITE: Bank = 0 Row = 0001, Col = 1c0, Data = zzzz
ddr_system.sdram0 : at time  124720.0 ns WRITE: Bank = 0 Row = 0001, Col = 1c1, Data = 0123
time( 124730.0 ns) axiWrCnt(       156) awaddr(0000001380) burstLen(  1) wdata:01234f2f
ddr_system.sdram0 : at time  124740.0 ns WRITE: Bank = 0 Row = 0001, Col = 1c2, Data = zzzz
ddr_system.sdram0 : at time  124760.0 ns WRITE: Bank = 0 Row = 0001, Col = 1c3, Data = 0123
time( 124830.0 ns) axiWrCnt(       157) awaddr(00000013a0) burstLen(  2) wdata:01234f37
ddr_system.sdram0 : at time  124840.0 ns WRITE: Bank = 0 Row = 0001, Col = 1d0, Data = zzzz
ddr_system.sdram0 : at time  124860.0 ns WRITE: Bank = 0 Row = 0001, Col = 1d1, Data = 0123
time( 124870.0 ns) axiWrCnt(       157) awaddr(00000013a0) burstLen(  1) wdata:01234f3f
ddr_system.sdram0 : at time  124880.0 ns WRITE: Bank = 0 Row = 0001, Col = 1d2, Data = zzzz
ddr_system.sdram0 : at time  124900.0 ns WRITE: Bank = 0 Row = 0001, Col = 1d3, Data = 0123
time( 124970.0 ns) axiWrCnt(       158) awaddr(00000013c0) burstLen(  2) wdata:01234f47
ddr_system.sdram0 : at time  124980.0 ns WRITE: Bank = 0 Row = 0001, Col = 1e0, Data = zzzz
ddr_system.sdram0 : at time  125000.0 ns WRITE: Bank = 0 Row = 0001, Col = 1e1, Data = 0123
time( 125010.0 ns) axiWrCnt(       158) awaddr(00000013c0) burstLen(  1) wdata:01234f4f
ddr_system.sdram0 : at time  125020.0 ns WRITE: Bank = 0 Row = 0001, Col = 1e2, Data = zzzz
ddr_system.sdram0 : at time  125040.0 ns WRITE: Bank = 0 Row = 0001, Col = 1e3, Data = 0123
time( 125110.0 ns) axiWrCnt(       159) awaddr(00000013e0) burstLen(  2) wdata:01234f57
ddr_system.sdram0 : at time  125120.0 ns WRITE: Bank = 0 Row = 0001, Col = 1f0, Data = zzzz
ddr_system.sdram0 : at time  125140.0 ns WRITE: Bank = 0 Row = 0001, Col = 1f1, Data = 0123
time( 125150.0 ns) axiWrCnt(       159) awaddr(00000013e0) burstLen(  1) wdata:01234f5f
ddr_system.sdram0 : at time  125160.0 ns WRITE: Bank = 0 Row = 0001, Col = 1f2, Data = zzzz
ddr_system.sdram0 : at time  125180.0 ns WRITE: Bank = 0 Row = 0001, Col = 1f3, Data = 0123
ddr_system.sdram0 : at time  125260.0 ns ACT  : Bank = 1 Row = 0001
time( 125290.0 ns) axiWrCnt(       160) awaddr(0000001400) burstLen(  2) wdata:01234f67
ddr_system.sdram0 : at time  125300.0 ns WRITE: Bank = 1 Row = 0001, Col = 000, Data = zzzz
ddr_system.sdram0 : at time  125320.0 ns WRITE: Bank = 1 Row = 0001, Col = 001, Data = 0123
time( 125330.0 ns) axiWrCnt(       160) awaddr(0000001400) burstLen(  1) wdata:01234f6f
ddr_system.sdram0 : at time  125340.0 ns WRITE: Bank = 1 Row = 0001, Col = 002, Data = zzzz
ddr_system.sdram0 : at time  125360.0 ns WRITE: Bank = 1 Row = 0001, Col = 003, Data = 0123
time( 125430.0 ns) axiWrCnt(       161) awaddr(0000001420) burstLen(  2) wdata:01234f77
ddr_system.sdram0 : at time  125440.0 ns WRITE: Bank = 1 Row = 0001, Col = 010, Data = zzzz
ddr_system.sdram0 : at time  125460.0 ns WRITE: Bank = 1 Row = 0001, Col = 011, Data = 0123
time( 125470.0 ns) axiWrCnt(       161) awaddr(0000001420) burstLen(  1) wdata:01234f7f
ddr_system.sdram0 : at time  125480.0 ns WRITE: Bank = 1 Row = 0001, Col = 012, Data = zzzz
ddr_system.sdram0 : at time  125500.0 ns WRITE: Bank = 1 Row = 0001, Col = 013, Data = 0123
ddr_system.sdram0 : at time  125600.0 ns AREF : Auto Refresh
ddr_system.sdram0 : at time  125700.0 ns ACT  : Bank = 1 Row = 0001
time( 125730.0 ns) axiWrCnt(       162) awaddr(0000001440) burstLen(  2) wdata:01234f87
ddr_system.sdram0 : at time  125740.0 ns WRITE: Bank = 1 Row = 0001, Col = 020, Data = zzzz
ddr_system.sdram0 : at time  125760.0 ns WRITE: Bank = 1 Row = 0001, Col = 021, Data = 0123
time( 125770.0 ns) axiWrCnt(       162) awaddr(0000001440) burstLen(  1) wdata:01234f8f
ddr_system.sdram0 : at time  125780.0 ns WRITE: Bank = 1 Row = 0001, Col = 022, Data = zzzz
ddr_system.sdram0 : at time  125800.0 ns WRITE: Bank = 1 Row = 0001, Col = 023, Data = 0123
time( 125870.0 ns) axiWrCnt(       163) awaddr(0000001460) burstLen(  2) wdata:01234f97
ddr_system.sdram0 : at time  125880.0 ns WRITE: Bank = 1 Row = 0001, Col = 030, Data = zzzz
ddr_system.sdram0 : at time  125900.0 ns WRITE: Bank = 1 Row = 0001, Col = 031, Data = 0123
time( 125910.0 ns) axiWrCnt(       163) awaddr(0000001460) burstLen(  1) wdata:01234f9f
ddr_system.sdram0 : at time  125920.0 ns WRITE: Bank = 1 Row = 0001, Col = 032, Data = zzzz
ddr_system.sdram0 : at time  125940.0 ns WRITE: Bank = 1 Row = 0001, Col = 033, Data = 0123
time( 126010.0 ns) axiWrCnt(       164) awaddr(0000001480) burstLen(  2) wdata:01234fa7
ddr_system.sdram0 : at time  126020.0 ns WRITE: Bank = 1 Row = 0001, Col = 040, Data = zzzz
ddr_system.sdram0 : at time  126040.0 ns WRITE: Bank = 1 Row = 0001, Col = 041, Data = 0123
time( 126050.0 ns) axiWrCnt(       164) awaddr(0000001480) burstLen(  1) wdata:01234faf
ddr_system.sdram0 : at time  126060.0 ns WRITE: Bank = 1 Row = 0001, Col = 042, Data = zzzz
ddr_system.sdram0 : at time  126080.0 ns WRITE: Bank = 1 Row = 0001, Col = 043, Data = 0123
time( 126150.0 ns) axiWrCnt(       165) awaddr(00000014a0) burstLen(  2) wdata:01234fb7
ddr_system.sdram0 : at time  126160.0 ns WRITE: Bank = 1 Row = 0001, Col = 050, Data = zzzz
ddr_system.sdram0 : at time  126180.0 ns WRITE: Bank = 1 Row = 0001, Col = 051, Data = 0123
time( 126190.0 ns) axiWrCnt(       165) awaddr(00000014a0) burstLen(  1) wdata:01234fbf
ddr_system.sdram0 : at time  126200.0 ns WRITE: Bank = 1 Row = 0001, Col = 052, Data = zzzz
ddr_system.sdram0 : at time  126220.0 ns WRITE: Bank = 1 Row = 0001, Col = 053, Data = 0123
time( 126290.0 ns) axiWrCnt(       166) awaddr(00000014c0) burstLen(  2) wdata:01234fc7
ddr_system.sdram0 : at time  126300.0 ns WRITE: Bank = 1 Row = 0001, Col = 060, Data = zzzz
ddr_system.sdram0 : at time  126320.0 ns WRITE: Bank = 1 Row = 0001, Col = 061, Data = 0123
time( 126330.0 ns) axiWrCnt(       166) awaddr(00000014c0) burstLen(  1) wdata:01234fcf
ddr_system.sdram0 : at time  126340.0 ns WRITE: Bank = 1 Row = 0001, Col = 062, Data = zzzz
ddr_system.sdram0 : at time  126360.0 ns WRITE: Bank = 1 Row = 0001, Col = 063, Data = 0123
time( 126430.0 ns) axiWrCnt(       167) awaddr(00000014e0) burstLen(  2) wdata:01234fd7
ddr_system.sdram0 : at time  126440.0 ns WRITE: Bank = 1 Row = 0001, Col = 070, Data = zzzz
ddr_system.sdram0 : at time  126460.0 ns WRITE: Bank = 1 Row = 0001, Col = 071, Data = 0123
time( 126470.0 ns) axiWrCnt(       167) awaddr(00000014e0) burstLen(  1) wdata:01234fdf
ddr_system.sdram0 : at time  126480.0 ns WRITE: Bank = 1 Row = 0001, Col = 072, Data = zzzz
ddr_system.sdram0 : at time  126500.0 ns WRITE: Bank = 1 Row = 0001, Col = 073, Data = 0123
time( 126570.0 ns) axiWrCnt(       168) awaddr(0000001500) burstLen(  2) wdata:01234fe7
ddr_system.sdram0 : at time  126580.0 ns WRITE: Bank = 1 Row = 0001, Col = 080, Data = zzzz
ddr_system.sdram0 : at time  126600.0 ns WRITE: Bank = 1 Row = 0001, Col = 081, Data = 0123
time( 126610.0 ns) axiWrCnt(       168) awaddr(0000001500) burstLen(  1) wdata:01234fef
ddr_system.sdram0 : at time  126620.0 ns WRITE: Bank = 1 Row = 0001, Col = 082, Data = zzzz
ddr_system.sdram0 : at time  126640.0 ns WRITE: Bank = 1 Row = 0001, Col = 083, Data = 0123
time( 126710.0 ns) axiWrCnt(       169) awaddr(0000001520) burstLen(  2) wdata:01234ff7
ddr_system.sdram0 : at time  126720.0 ns WRITE: Bank = 1 Row = 0001, Col = 090, Data = zzzz
ddr_system.sdram0 : at time  126740.0 ns WRITE: Bank = 1 Row = 0001, Col = 091, Data = 0123
time( 126750.0 ns) axiWrCnt(       169) awaddr(0000001520) burstLen(  1) wdata:01234fff
ddr_system.sdram0 : at time  126760.0 ns WRITE: Bank = 1 Row = 0001, Col = 092, Data = zzzz
ddr_system.sdram0 : at time  126780.0 ns WRITE: Bank = 1 Row = 0001, Col = 093, Data = 0123
time( 126850.0 ns) axiWrCnt(       170) awaddr(0000001540) burstLen(  2) wdata:01235007
ddr_system.sdram0 : at time  126860.0 ns WRITE: Bank = 1 Row = 0001, Col = 0a0, Data = zzzz
ddr_system.sdram0 : at time  126880.0 ns WRITE: Bank = 1 Row = 0001, Col = 0a1, Data = 0123
time( 126890.0 ns) axiWrCnt(       170) awaddr(0000001540) burstLen(  1) wdata:0123500f
ddr_system.sdram0 : at time  126900.0 ns WRITE: Bank = 1 Row = 0001, Col = 0a2, Data = zzzz
ddr_system.sdram0 : at time  126920.0 ns WRITE: Bank = 1 Row = 0001, Col = 0a3, Data = 0123
time( 126990.0 ns) axiWrCnt(       171) awaddr(0000001560) burstLen(  2) wdata:01235017
ddr_system.sdram0 : at time  127000.0 ns WRITE: Bank = 1 Row = 0001, Col = 0b0, Data = zzzz
ddr_system.sdram0 : at time  127020.0 ns WRITE: Bank = 1 Row = 0001, Col = 0b1, Data = 0123
time( 127030.0 ns) axiWrCnt(       171) awaddr(0000001560) burstLen(  1) wdata:0123501f
ddr_system.sdram0 : at time  127040.0 ns WRITE: Bank = 1 Row = 0001, Col = 0b2, Data = zzzz
ddr_system.sdram0 : at time  127060.0 ns WRITE: Bank = 1 Row = 0001, Col = 0b3, Data = 0123
time( 127130.0 ns) axiWrCnt(       172) awaddr(0000001580) burstLen(  2) wdata:01235027
ddr_system.sdram0 : at time  127140.0 ns WRITE: Bank = 1 Row = 0001, Col = 0c0, Data = zzzz
ddr_system.sdram0 : at time  127160.0 ns WRITE: Bank = 1 Row = 0001, Col = 0c1, Data = 0123
time( 127170.0 ns) axiWrCnt(       172) awaddr(0000001580) burstLen(  1) wdata:0123502f
ddr_system.sdram0 : at time  127180.0 ns WRITE: Bank = 1 Row = 0001, Col = 0c2, Data = zzzz
ddr_system.sdram0 : at time  127200.0 ns WRITE: Bank = 1 Row = 0001, Col = 0c3, Data = 0123
time( 127270.0 ns) axiWrCnt(       173) awaddr(00000015a0) burstLen(  2) wdata:01235037
ddr_system.sdram0 : at time  127280.0 ns WRITE: Bank = 1 Row = 0001, Col = 0d0, Data = zzzz
ddr_system.sdram0 : at time  127300.0 ns WRITE: Bank = 1 Row = 0001, Col = 0d1, Data = 0123
time( 127310.0 ns) axiWrCnt(       173) awaddr(00000015a0) burstLen(  1) wdata:0123503f
ddr_system.sdram0 : at time  127320.0 ns WRITE: Bank = 1 Row = 0001, Col = 0d2, Data = zzzz
ddr_system.sdram0 : at time  127340.0 ns WRITE: Bank = 1 Row = 0001, Col = 0d3, Data = 0123
time( 127410.0 ns) axiWrCnt(       174) awaddr(00000015c0) burstLen(  2) wdata:01235047
ddr_system.sdram0 : at time  127420.0 ns WRITE: Bank = 1 Row = 0001, Col = 0e0, Data = zzzz
ddr_system.sdram0 : at time  127440.0 ns WRITE: Bank = 1 Row = 0001, Col = 0e1, Data = 0123
time( 127450.0 ns) axiWrCnt(       174) awaddr(00000015c0) burstLen(  1) wdata:0123504f
ddr_system.sdram0 : at time  127460.0 ns WRITE: Bank = 1 Row = 0001, Col = 0e2, Data = zzzz
ddr_system.sdram0 : at time  127480.0 ns WRITE: Bank = 1 Row = 0001, Col = 0e3, Data = 0123
time( 127550.0 ns) axiWrCnt(       175) awaddr(00000015e0) burstLen(  2) wdata:01235057
ddr_system.sdram0 : at time  127560.0 ns WRITE: Bank = 1 Row = 0001, Col = 0f0, Data = zzzz
ddr_system.sdram0 : at time  127580.0 ns WRITE: Bank = 1 Row = 0001, Col = 0f1, Data = 0123
time( 127590.0 ns) axiWrCnt(       175) awaddr(00000015e0) burstLen(  1) wdata:0123505f
ddr_system.sdram0 : at time  127600.0 ns WRITE: Bank = 1 Row = 0001, Col = 0f2, Data = zzzz
ddr_system.sdram0 : at time  127620.0 ns WRITE: Bank = 1 Row = 0001, Col = 0f3, Data = 0123
time( 127690.0 ns) axiWrCnt(       176) awaddr(0000001600) burstLen(  2) wdata:01235067
ddr_system.sdram0 : at time  127700.0 ns WRITE: Bank = 1 Row = 0001, Col = 100, Data = zzzz
ddr_system.sdram0 : at time  127720.0 ns WRITE: Bank = 1 Row = 0001, Col = 101, Data = 0123
time( 127730.0 ns) axiWrCnt(       176) awaddr(0000001600) burstLen(  1) wdata:0123506f
ddr_system.sdram0 : at time  127740.0 ns WRITE: Bank = 1 Row = 0001, Col = 102, Data = zzzz
ddr_system.sdram0 : at time  127760.0 ns WRITE: Bank = 1 Row = 0001, Col = 103, Data = 0123
time( 127830.0 ns) axiWrCnt(       177) awaddr(0000001620) burstLen(  2) wdata:01235077
ddr_system.sdram0 : at time  127840.0 ns WRITE: Bank = 1 Row = 0001, Col = 110, Data = zzzz
ddr_system.sdram0 : at time  127860.0 ns WRITE: Bank = 1 Row = 0001, Col = 111, Data = 0123
time( 127870.0 ns) axiWrCnt(       177) awaddr(0000001620) burstLen(  1) wdata:0123507f
ddr_system.sdram0 : at time  127880.0 ns WRITE: Bank = 1 Row = 0001, Col = 112, Data = zzzz
ddr_system.sdram0 : at time  127900.0 ns WRITE: Bank = 1 Row = 0001, Col = 113, Data = 0123
time( 127970.0 ns) axiWrCnt(       178) awaddr(0000001640) burstLen(  2) wdata:01235087
ddr_system.sdram0 : at time  127980.0 ns WRITE: Bank = 1 Row = 0001, Col = 120, Data = zzzz
ddr_system.sdram0 : at time  128000.0 ns WRITE: Bank = 1 Row = 0001, Col = 121, Data = 0123
time( 128010.0 ns) axiWrCnt(       178) awaddr(0000001640) burstLen(  1) wdata:0123508f
ddr_system.sdram0 : at time  128020.0 ns WRITE: Bank = 1 Row = 0001, Col = 122, Data = zzzz
ddr_system.sdram0 : at time  128040.0 ns WRITE: Bank = 1 Row = 0001, Col = 123, Data = 0123
time( 128110.0 ns) axiWrCnt(       179) awaddr(0000001660) burstLen(  2) wdata:01235097
ddr_system.sdram0 : at time  128120.0 ns WRITE: Bank = 1 Row = 0001, Col = 130, Data = zzzz
ddr_system.sdram0 : at time  128140.0 ns WRITE: Bank = 1 Row = 0001, Col = 131, Data = 0123
time( 128150.0 ns) axiWrCnt(       179) awaddr(0000001660) burstLen(  1) wdata:0123509f
ddr_system.sdram0 : at time  128160.0 ns WRITE: Bank = 1 Row = 0001, Col = 132, Data = zzzz
ddr_system.sdram0 : at time  128180.0 ns WRITE: Bank = 1 Row = 0001, Col = 133, Data = 0123
time( 128250.0 ns) axiWrCnt(       180) awaddr(0000001680) burstLen(  2) wdata:012350a7
ddr_system.sdram0 : at time  128260.0 ns WRITE: Bank = 1 Row = 0001, Col = 140, Data = zzzz
ddr_system.sdram0 : at time  128280.0 ns WRITE: Bank = 1 Row = 0001, Col = 141, Data = 0123
time( 128290.0 ns) axiWrCnt(       180) awaddr(0000001680) burstLen(  1) wdata:012350af
